(000.000000) can0 0B0#0164410500000000
(000.001006) can0 0B0#0200000500000000
(000.012068) can0 181#4A254901
(000.014868) can0 0AA#05EBFF0001
(000.014954) can0 0AA#0143B236A0DC9FFD
(000.015384) can0 0FF#90006F7000000000
(000.025034) can0 0B0#0164420500000000
(000.025961) can0 0B0#0200000500000000
(000.027707) can0 0C0#0231000000000000
(000.032671) can0 0C0#0100000000000000
(000.037472) can0 0C0#0000000000000000
(000.042216) can0 0D0#0800000000000000
(000.049995) can0 0B0#0164430500000000
(000.050974) can0 0B0#0200000500000000
(000.054932) can0 0AA#05EDFF0001
(000.055018) can0 0AA#0143B235A0DC9FFD
(000.057085) can0 182#4A534801
(000.074958) can0 0B0#0164420500000000
(000.075967) can0 0B0#0200000500000000
(000.082180) can0 0B0#0200000500000000
(000.097553) can0 0D0#0600000000000157
(000.099968) can0 0B0#0164430500000000
(000.100982) can0 0B0#0200000500000000
(000.111934) can0 181#4A224901
(000.112825) can0 0AA#0A070B0760067B
(000.124036) can0 0AA#05ECFF0001
(000.124122) can0 0AA#0143B237A0DD9FFE
(000.124963) can0 0B0#0164430500000000
(000.125943) can0 0B0#0200000500000000
(000.136090) can0 0AA#05ECFF0001
(000.136183) can0 0AA#0143B23DA0DD9FFE
(000.150031) can0 0B0#0164430500000000
(000.150987) can0 0B0#0200000500000000
(000.156935) can0 182#4A5B4801
(000.157310) can0 0B0#0164430500000000
(000.167404) can0 0FF#9000707000000000
(000.174992) can0 0B0#0164420500000000
(000.175079) can0 0AA#05EDFF0001
(000.175215) can0 0AA#0143B223A0DC9FFE
(000.175972) can0 0B0#0200000500000000
(000.197633) can0 0D0#0600000000000157
(000.200007) can0 0B0#0164430500000000
(000.200994) can0 0B0#0200000500000000
(000.211772) can0 181#4A224901
(000.215190) can0 0AA#05ECFF0001
(000.215273) can0 0AA#0143B237A0DC9FFE
(000.225003) can0 0B0#0164430500000000
(000.225978) can0 0B0#0200000500000000
(000.229043) can0 0A0#0100000500000000
(000.229419) can0 0A0#02EC000500000000
(000.230270) can0 0AF#0201000500000000
(000.249957) can0 0B0#0164430500000000
(000.250774) can0 055#0100000000000000
(000.250951) can0 0B0#0200000500000000
(000.255300) can0 0AA#05EBFF0001
(000.255395) can0 0AA#0143B233A0DD9FFD
(000.256765) can0 182#4A574801
(000.274981) can0 0B0#0164410500000000
(000.275979) can0 0B0#0200000500000000
(000.297556) can0 0D0#0600000000000157
(000.300017) can0 0B0#0164420500000000
(000.300993) can0 0B0#0200000500000000
(000.311595) can0 181#4A254901
(000.313144) can0 0AA#0A070B0760067B
(000.319443) can0 0FF#9000707000000000
(000.324389) can0 0AA#05EDFF0001
(000.324479) can0 0AA#0143B22EA0DC9FFE
(000.324988) can0 0B0#0164440500000000
(000.326000) can0 0B0#0200000500000000
(000.332769) can0 0B0#0200000500000000
(000.336422) can0 0AA#05ECFF0001
(000.336532) can0 0AA#0143B22CA0DC9FFE
(000.350016) can0 0B0#0164430500000000
(000.351003) can0 0B0#0200000500000000
(000.356635) can0 182#4A594801
(000.374967) can0 0B0#0164420500000000
(000.375469) can0 0AA#05EAFF0001
(000.375542) can0 0AA#0143B233A0DC9FFD
(000.375988) can0 0B0#0200000500000000
(000.397522) can0 0D0#0600000000000157
(000.399976) can0 0B0#0164420500000000
(000.400979) can0 0B0#0200000500000000
(000.407905) can0 0B0#0164420500000000
(000.411446) can0 181#4A214901
(000.415557) can0 0AA#05EFFF0001
(000.415640) can0 0AA#0143B227A0DC9FFD
(000.425030) can0 0B0#0164430500000000
(000.426005) can0 0B0#0200000500000000
(000.432946) can0 0C0#0100000000000000
(000.437929) can0 0C0#0000000000000000
(000.447473) can0 0D0#0600000000000157
(000.449978) can0 0B0#0164420500000000
(000.450988) can0 0B0#0200000500000000
(000.455628) can0 0AA#05EBFF0001
(000.455713) can0 0AA#0143B236A0DC9FFD
(000.456426) can0 182#4A5A4801
(000.471418) can0 0FF#9000707000000000
(000.475014) can0 0B0#0164430500000000
(000.476011) can0 0B0#0200000500000000
(000.499970) can0 0B0#0164420500000000
(000.501020) can0 0B0#0200000500000000
(000.511305) can0 181#4A264901
(000.513511) can0 0AA#0A070B0760067B
(000.524745) can0 0AA#05EDFF0001
(000.524833) can0 0AA#0143B227A0DC9FFE
(000.524943) can0 0B0#0164430500000000
(000.525973) can0 0B0#0200000500000000
(000.527178) can0 0C0#0231000000000000
(000.536770) can0 0AA#05EBFF0001
(000.536860) can0 0AA#0143B22EA0DC9FFE
(000.549970) can0 0B0#0164430500000000
(000.550979) can0 0B0#0200000500000000
(000.556265) can0 182#4A584801
(000.575001) can0 0B0#0164420500000000
(000.575838) can0 0AA#05ECFF0001
(000.575922) can0 0AA#0143B22FA0DD9FFD
(000.576032) can0 0B0#0200000500000000
(000.583299) can0 0B0#0200000500000000
(000.600008) can0 0B0#0164430500000000
(000.601012) can0 0B0#0200000500000000
(000.611112) can0 181#4A224901
(000.615885) can0 0AA#05ECFF0001
(000.615979) can0 0AA#0143B230A0DD9FFD
(000.623428) can0 0FF#9000707000000000
(000.625016) can0 0B0#0164420500000000
(000.626002) can0 0B0#0200000500000000
(000.649994) can0 0B0#0164430500000000
(000.651013) can0 0B0#0200000500000000
(000.655984) can0 0AA#05E7FF0001
(000.656067) can0 0AA#0143B238A0DC9FFE
(000.656117) can0 182#4A5B4801
(000.658520) can0 0B0#0164440500000000
(000.674986) can0 0B0#0164430500000000
(000.675988) can0 0B0#0200000500000000
(000.700000) can0 0B0#0164430500000000
(000.700998) can0 0B0#0200000500000000
(000.710961) can0 181#4A234901
(000.713871) can0 0AA#0A070B0760067B
(000.725042) can0 0B0#0164420500000000
(000.725127) can0 0AA#05EDFF0001
(000.725178) can0 0AA#0143B236A0DD9FFE
(000.725984) can0 0B0#0200000500000000
(000.728732) can0 0AF#0201000500000000
(000.732631) can0 0C0#0100000000000000
(000.737100) can0 0AA#05ECFF0001
(000.737182) can0 0AA#0143B235A0DD9FFD
(000.737603) can0 0C0#0000000000000000
(000.747173) can0 0D0#0600000000000157
(000.750030) can0 0B0#0164440500000000
(000.751017) can0 0B0#0200000500000000
(000.755973) can0 182#4A584801
(000.774992) can0 0B0#0164430500000000
(000.775397) can0 0FF#9000707000000000
(000.776020) can0 0B0#0200000500000000
(000.776128) can0 0AA#05E8FF0001
(000.776260) can0 0AA#0143B232A0DD9FFD
(000.798174) can0 0D0#0600000000000157
(000.799987) can0 0B0#0164430500000000
(000.800989) can0 0B0#0200000500000000
(000.810803) can0 181#4A204901
(000.816266) can0 0AA#05EDFF0001
(000.816350) can0 0AA#0143B22EA0DD9FFD
(000.824996) can0 0B0#0164430500000000
(000.825993) can0 0B0#0200000500000000
(000.833064) can0 0C0#0100000000000000
(000.833893) can0 0B0#0200000500000000
(000.838039) can0 0C0#0000000000000000
(000.847571) can0 0D0#0600000000000157
(000.850013) can0 0B0#0164420500000000
(000.851020) can0 0B0#0200000500000000
(000.855800) can0 182#4A564801
(000.856321) can0 0AA#05EDFF0001
(000.856398) can0 0AA#0143B229A0DC9FFD
(000.875025) can0 0B0#0164430500000000
(000.876003) can0 0B0#0200000500000000
(000.899976) can0 0B0#0164410500000000
(000.901019) can0 0B0#0200000500000000
(000.909080) can0 0B0#0164420500000000
(000.910654) can0 181#4A224901
(000.914234) can0 0AA#0A070B0760067B
(000.925004) can0 0B0#0164430500000000
(000.925452) can0 0AA#05ECFF0001
(000.925527) can0 0AA#0143B237A0DC9FFE
(000.926011) can0 0B0#0200000500000000
(000.927437) can0 0FF#9000707000000000
(000.937485) can0 0AA#05ECFF0001
(000.937574) can0 0AA#0143B22DA0DC9FFE
(000.950024) can0 0B0#0164430500000000
(000.951019) can0 0B0#0200000500000000
(000.955679) can0 182#4A564801
(000.974995) can0 0B0#0164430500000000
(000.975984) can0 0B0#0200000500000000
(000.976541) can0 0AA#05EDFF0001
(000.976621) can0 0AA#0143B220A0DC9FFE
(001.000030) can0 0B0#0164420500000000
(001.001025) can0 0B0#0200000500000000
(001.010474) can0 181#4A244901
(001.016622) can0 0AA#05ECFF0001
(001.016707) can0 0AA#0143B228A0DC9FFE
(001.025034) can0 0B0#0164420500000000
(001.025996) can0 0B0#0200000500000000
(001.050010) can0 0B0#0164440500000000
(001.051027) can0 0B0#0200000500000000
(001.055531) can0 182#4A544801
(001.056717) can0 0AA#05EFFF0001
(001.056802) can0 0AA#0143B22FA0DD9FFE
(001.075038) can0 0B0#0164410500000000
(001.076004) can0 0B0#0200000500000000
(001.079444) can0 0FF#9000707000000000
(001.084468) can0 0B0#0200000500000000
(001.100018) can0 0B0#0164420500000000
(001.101029) can0 0B0#0200000500000000
(001.110349) can0 181#4A1E4901
(001.114618) can0 0AA#0A070B0760067B
(001.125044) can0 0B0#0164420500000000
(001.125850) can0 0AA#05ECFF0001
(001.125935) can0 0AA#0143B22DA0DC9FFE
(001.126044) can0 0B0#0200000500000000
(001.137867) can0 0AA#05ECFF0001
(001.137959) can0 0AA#0143B234A0DC9FFE
(001.150037) can0 0B0#0164420500000000
(001.151039) can0 0B0#0200000500000000
(001.155371) can0 182#4A574801
(001.159620) can0 0B0#0164420500000000
(001.175016) can0 0B0#0164430500000000
(001.176030) can0 0B0#0200000500000000
(001.176948) can0 0AA#05EBFF0001
(001.177030) can0 0AA#0143B228A0DC9FFD
(001.200036) can0 0B0#0164420500000000
(001.201021) can0 0B0#0200000500000000
(001.210197) can0 181#4A224901
(001.217023) can0 0AA#05EAFF0001
(001.217108) can0 0AA#0143B22BA0DC9FFD
(001.224996) can0 0B0#0164430500000000
(001.226026) can0 0B0#0200000500000000
(001.229096) can0 0A0#0100000500000000
(001.229450) can0 0A0#02EC000500000000
(001.229991) can0 0AF#0201000500000000
(001.233166) can0 0C0#0100000000000000
(001.233387) can0 0FF#9000707000000000
(001.233795) can0 055#0100000000000000
(001.238169) can0 0C0#0000000000000000
(001.247654) can0 0D0#0600000000000157
(001.249995) can0 0B0#0164420500000000
(001.250995) can0 0B0#0200000500000000
(001.255146) can0 182#4A574801
(001.257097) can0 0AA#05EFFF0001
(001.257182) can0 0AA#0143B236A0DD9FFD
(001.275055) can0 0B0#0164430500000000
(001.276012) can0 0B0#0200000500000000
(001.297635) can0 0D0#0600000000000157
(001.300036) can0 0B0#0164430500000000
(001.301026) can0 0B0#0200000500000000
(001.310058) can0 181#4A244901
(001.314995) can0 0AA#0A070B0760067B
(001.325016) can0 0B0#0164420500000000
(001.326003) can0 0B0#0200000500000000
(001.326196) can0 0AA#05EBFF0001
(001.326305) can0 0AA#0143B22FA0DE9FFD
(001.335080) can0 0B0#0200000500000000
(001.338274) can0 0AA#05E8FF0001
(001.338364) can0 0AA#0143B228A0DE9FFD
(001.347803) can0 0D0#0600000000000157
(001.350014) can0 0B0#0164420500000000
(001.351003) can0 0B0#0200000500000000
(001.355053) can0 182#4A574801
(001.374987) can0 0B0#0164420500000000
(001.376005) can0 0B0#0200000500000000
(001.377320) can0 0AA#05EFFF0001
(001.377399) can0 0AA#0143B228A0DD9FFD
(001.385444) can0 0FF#9000707000000000
(001.400038) can0 0B0#0164420500000000
(001.400999) can0 0B0#0200000500000000
(001.409855) can0 181#4A224901
(001.410190) can0 0B0#0164420500000000
(001.417423) can0 0AA#05EDFF0001
(001.417509) can0 0AA#0143B226A0DD9FFD
(001.425029) can0 0B0#0164420500000000
(001.426033) can0 0B0#0200000500000000
(001.427181) can0 0C0#0231000000000000
(001.450025) can0 0B0#0164420500000000
(001.451032) can0 0B0#0200000500000000
(001.454894) can0 182#4A594801
(001.457496) can0 0AA#05EBFF0001
(001.457579) can0 0AA#0143B22EA0DC9FFD
(001.475035) can0 0B0#0164440500000000
(001.476042) can0 0B0#0200000500000000
(001.500021) can0 0B0#0164430500000000
(001.501037) can0 0B0#0200000500000000
(001.509720) can0 181#4A244901
(001.515396) can0 0AA#0A070B0760067B
(001.525024) can0 0B0#0164430500000000
(001.526040) can0 0B0#0200000500000000
(001.526604) can0 0AA#05EDFF0001
(001.526683) can0 0AA#0143B232A0DE9FFC
(001.537447) can0 0FF#9000707000000000
(001.538645) can0 0AA#05EBFF0001
(001.538730) can0 0AA#0143B232A0DE9FFC
(001.550063) can0 0B0#0164410500000000
(001.551028) can0 0B0#0200000500000000
(001.554718) can0 182#4A5A4801
(001.575031) can0 0B0#0164410500000000
(001.576019) can0 0B0#0200000500000000
(001.577733) can0 0AA#05ECFF0001
(001.577818) can0 0AA#0143B22EA0DD9FFD
(001.585620) can0 0B0#0200000500000000
(001.600023) can0 0B0#0164430500000000
(001.601017) can0 0B0#0200000500000000
(001.609562) can0 181#4A224901
(001.617779) can0 0AA#05EFFF0001
(001.617878) can0 0AA#0143B233A0DD9FFE
(001.625062) can0 0B0#0164430500000000
(001.626044) can0 0B0#0200000500000000
(001.647994) can0 0D0#0600000000000157
(001.650023) can0 0B0#0164420500000000
(001.650981) can0 0B0#0200000500000000
(001.654571) can0 182#4A594801
(001.657869) can0 0AA#05EDFF0001
(001.657956) can0 0AA#0143B22DA0DC9FFE
(001.660808) can0 0B0#0164420500000000
(001.675044) can0 0B0#0164440500000000
(001.676020) can0 0B0#0200000500000000
(001.689442) can0 0FF#9000707000000000
(001.698159) can0 0D0#0600000000000157
(001.700037) can0 0B0#0164420500000000
(001.701037) can0 0B0#0200000500000000
(001.709367) can0 181#4A234901
(001.715762) can0 0AA#0A070B0760067B
(001.725048) can0 0B0#0164410500000000
(001.726034) can0 0B0#0200000500000000
(001.726990) can0 0AA#05ECFF0001
(001.727073) can0 0AA#0143B235A0DE9FFD
(001.727297) can0 0C0#0231000000000000
(001.729202) can0 0AF#0201000000000000
(001.738988) can0 0AA#05EDFF0001
(001.739077) can0 0AA#0143B226A0DE9FFD
(001.750045) can0 0B0#0164420500000000
(001.751021) can0 0B0#0200000500000000
(001.754422) can0 182#4A5A4801
(001.775033) can0 0B0#0164440500000000
(001.776053) can0 0B0#0200000500000000
(001.778138) can0 0AA#05ECFF0001
(001.778224) can0 0AA#0143B22EA0DC9FFE
(001.800020) can0 0B0#0164430500000000
(001.801029) can0 0B0#0200000500000000
(001.809215) can0 181#4A214901
(001.818179) can0 0AA#05EBFF0001
(001.818267) can0 0AA#0143B238A0DC9FFD
(001.825054) can0 0B0#0164430500000000
(001.826037) can0 0B0#0200000500000000
(001.827372) can0 0C0#0231000000000000
(001.836192) can0 0B0#0200000500000000
(001.841456) can0 0FF#9000707000000000
(001.850055) can0 0B0#0164430500000000
(001.851027) can0 0B0#0200000500000000
(001.854222) can0 182#4A584801
(001.858223) can0 0AA#05EDFF0001
(001.858308) can0 0AA#0143B237A0DD9FFD
(001.875053) can0 0B0#0164420500000000
(001.876042) can0 0B0#0200000500000000
(001.900035) can0 0B0#0164430500000000
(001.901034) can0 0B0#0200000500000000
(001.909085) can0 181#4A274901
(001.911371) can0 0B0#0164420500000000
(001.916125) can0 0AA#0A070B0760067B
(001.925037) can0 0B0#0164420500000000
(001.926008) can0 0B0#0200000500000000
(001.927353) can0 0AA#05EFFF0001
(001.927438) can0 0AA#0143B22AA0DC9FFD
(001.928194) can0 0C0#0231000000000000
(001.932970) can0 0C0#0100000000000000
(001.937908) can0 0C0#0000000000000000
(001.939382) can0 0AA#05EFFF0001
(001.939467) can0 0AA#0143B218A0DC9FFC
(001.947720) can0 0D0#0600000000000157
(001.950011) can0 0B0#0164440500000000
(001.951024) can0 0B0#0200000500000000
(001.954047) can0 182#4A534801
(001.975053) can0 0B0#0164420500000000
(001.976024) can0 0B0#0200000500000000
(001.978468) can0 0AA#05EDFF0001
(001.978553) can0 0AA#0143B21BA0DD9FFC
(001.993455) can0 0FF#9000707000000000
(001.997199) can0 0D0#0600000000000157
(002.000064) can0 0B0#0164430500000000
(002.001045) can0 0B0#0200000500000000
(002.008927) can0 181#4A264901
(002.018524) can0 0AA#05ECFF0001
(002.018613) can0 0AA#0143B232A0DC9FFD
(002.025042) can0 0B0#0164420500000000
(002.026026) can0 0B0#0200000500000000
(002.032957) can0 0C0#0100000000000000
(002.038002) can0 0C0#0000000000000000
(002.042945) can0 0D0#0800000000000000
(002.047753) can0 0D0#0600000000000157
(002.050039) can0 0B0#0164430500000000
(002.051055) can0 0B0#0200000500000000
(002.053945) can0 182#4A594801
(002.058610) can0 0AA#05EDFF0001
(002.058696) can0 0AA#0143B231A0DD9FFD
(002.075026) can0 0B0#0164420500000000
(002.076021) can0 0B0#0200000500000000
(002.086770) can0 0B0#0200000500000000
(002.100065) can0 0B0#0164430500000000
(002.101023) can0 0B0#0200000500000000
(002.108749) can0 181#4A244901
(002.116488) can0 0AA#0A070B0760067A
(002.125051) can0 0B0#0164430500000000
(002.126066) can0 0B0#0200000500000000
(002.127716) can0 0AA#05EFFF0001
(002.127799) can0 0AA#0143B224A0DD9FFC
(002.127917) can0 0C0#0231000000000000
(002.132735) can0 0C0#0100000000000000
(002.137444) can0 0C0#0000000000000000
(002.139733) can0 0AA#05EDFF0001
(002.139820) can0 0AA#0143B22CA0DD9FFD
(002.145460) can0 0FF#9000707000000000
(002.147214) can0 0D0#0600000000000157
(002.150052) can0 0B0#0164430500000000
(002.151070) can0 0B0#0200000500000000
(002.153748) can0 182#4A584801
(002.161960) can0 0B0#0164420500000000
(002.175042) can0 0B0#0164430500000000
(002.176059) can0 0B0#0200000500000000
(002.178829) can0 0AA#05EDFF0001
(002.178915) can0 0AA#0143B230A0DE9FFD
(002.198143) can0 0D0#0600000000000157
(002.200025) can0 0B0#0164430500000000
(002.201041) can0 0B0#0200000500000000
(002.208615) can0 181#4A1F4901
(002.218891) can0 0AA#05EDFF0001
(002.218976) can0 0AA#0143B230A0DC9FFD
(002.225033) can0 0B0#0164420500000000
(002.226037) can0 0B0#0200000500000000
(002.230947) can0 0A0#0100000500000000
(002.231295) can0 0A0#02EC000500000000
(002.231838) can0 0AF#0201000500000000
(002.233158) can0 0C0#0100000000000000
(002.234843) can0 055#0100000000000000
(002.237891) can0 0C0#0000000000000000
(002.247648) can0 0D0#0600000000000157
(002.250027) can0 0B0#0164430500000000
(002.251028) can0 0B0#0200000500000000
(002.253570) can0 182#4A554801
(002.258917) can0 0AA#05EDFF0001
(002.258999) can0 0AA#0143B230A0DC9FFD
(002.275074) can0 0B0#0164430500000000
(002.276038) can0 0B0#0200000500000000
(002.297460) can0 0FF#9000707000000000
(002.300080) can0 0B0#0164420500000000
(002.301075) can0 0B0#0200000500000000
(002.308482) can0 181#4A224901
(002.316832) can0 0AA#0A070B0760067A
(002.325063) can0 0B0#0164440500000000
(002.326064) can0 0B0#0200000500000000
(002.327990) can0 0C0#0232000000000000
(002.328130) can0 0AA#05EFFF0001
(002.328187) can0 0AA#0143B22EA0DC9FFD
(002.333070) can0 0C0#0100000000000000
(002.337344) can0 0B0#0200000500000000
(002.340115) can0 0AA#05EFFF0001
(002.340202) can0 0AA#0143B229A0DC9FFD
(002.350016) can0 0B0#0164420500000000
(002.351028) can0 0B0#0200000500000000
(002.353465) can0 182#4A584801
(002.375077) can0 0B0#0164420500000000
(002.376052) can0 0B0#0200000500000000
(002.379154) can0 0AA#05ECFF0001
(002.379234) can0 0AA#0143B235A0DC9FFD
(002.400077) can0 0B0#0164430500000000
(002.401038) can0 0B0#0200000500000000
(002.408264) can0 181#4A244901
(002.412499) can0 0B0#0164420500000000
(002.419251) can0 0AA#05EBFF0001
(002.419339) can0 0AA#0143B230A0DC9FFD
(002.425073) can0 0B0#0164420500000000
(002.426053) can0 0B0#0200000500000000
(002.432966) can0 0C0#0100000000000000
(002.437659) can0 0C0#0000000000000000
(002.447873) can0 0D0#0600000000000157
(002.449454) can0 0FF#9000707000000000
(002.450050) can0 0B0#0164430500000000
(002.451057) can0 0B0#0200000500000000
(002.453270) can0 182#4A5C4801
(002.459335) can0 0AA#05ECFF0001
(002.459419) can0 0AA#0143B232A0DC9FFD
(002.475049) can0 0B0#0164430500000000
(002.476047) can0 0B0#0200000500000000
(002.497646) can0 0D0#0600000000000157
(002.500040) can0 0B0#0164430500000000
(002.501027) can0 0B0#0200000500000000
(002.508167) can0 181#4A214901
(002.517208) can0 0AA#0A070B0760067A
(002.525052) can0 0B0#0164430500000000
(002.526063) can0 0B0#0200000500000000
(002.528443) can0 0AA#05EBFF0001
(002.528527) can0 0AA#0143B237A0DD9FFE
(002.540486) can0 0AA#05EAFF0001
(002.540581) can0 0AA#0143B22EA0DD9FFE
(002.542450) can0 0D0#0800000000000000
(002.547262) can0 0D0#0600000000000157
(002.550062) can0 0B0#0164410500000000
(002.551066) can0 0B0#0200000500000000
(002.553119) can0 182#4A584801
(002.575069) can0 0B0#0164430500000000
(002.576082) can0 0B0#0200000500000000
(002.579545) can0 0AA#05EAFF0001
(002.579631) can0 0AA#0143B234A0DE9FFD
(002.587944) can0 0B0#0200000500000000
(002.600071) can0 0B0#0164440500000000
(002.601058) can0 0B0#0200000500000000
(002.601431) can0 0FF#9000707000000000
(002.607966) can0 181#4A1F4901
(002.619590) can0 0AA#05EDFF0001
(002.619685) can0 0AA#0143B22EA0DD9FFD
(002.625027) can0 0B0#0164420500000000
(002.626015) can0 0B0#0200000500000000
(002.627417) can0 0C0#0231000000000000
(002.632239) can0 0C0#0100000000000000
(002.650039) can0 0B0#0164430500000000
(002.651047) can0 0B0#0200000500000000
(002.652970) can0 182#4A5A4801
(002.659689) can0 0AA#05EDFF0001
(002.659777) can0 0AA#0143B23DA0DD9FFD
(002.663117) can0 0B0#0164410500000000
(002.675075) can0 0B0#0164430500000000
(002.676065) can0 0B0#0200000500000000
(002.700064) can0 0B0#0164430500000000
(002.701061) can0 0B0#0200000500000000
(002.707804) can0 181#4A214901
(002.717568) can0 0AA#0A070B0760067A
(002.725078) can0 0B0#0164420500000000
(002.726056) can0 0B0#0200000500000000
(002.728139) can0 0C0#0231000000000000
(002.728797) can0 0AA#05EDFF0001
(002.728877) can0 0AA#0143B23DA0DB9FFD
(002.729863) can0 0AF#0201000000000000
(002.732458) can0 0C0#0100000000000000
(002.737279) can0 0C0#0000000000000000
(002.740846) can0 0AA#05EDFF0001
(002.740951) can0 0AA#0143B225A0DB9FFD
(002.750037) can0 0B0#0164420500000000
(002.751077) can0 0B0#0200000500000000
(002.752838) can0 182#4A584801
(002.753442) can0 0FF#9000707000000000
(002.775037) can0 0B0#0164420500000000
(002.776056) can0 0B0#0200000500000000
(002.779888) can0 0AA#05ECFF0001
(002.779976) can0 0AA#0143B22CA0DD9FFD
(002.800096) can0 0B0#0164440500000000
(002.801061) can0 0B0#0200000500000000
(002.807635) can0 181#4A244901
(002.819976) can0 0AA#05EDFF0001
(002.820066) can0 0AA#0143B230A0DC9FFD
(002.825063) can0 0B0#0164430500000000
(002.826054) can0 0B0#0200000500000000
(002.838501) can0 0B0#0200000500000000
(002.850065) can0 0B0#0164420500000000
(002.851051) can0 0B0#0200000500000000
(002.852678) can0 182#4A5E4801
(002.860058) can0 0AA#05EBFF0001
(002.860145) can0 0AA#0143B231A0DC9FFD
(002.875058) can0 0B0#0164430500000000
(002.876065) can0 0B0#0200000500000000
(002.900050) can0 0B0#0164420500000000
(002.901071) can0 0B0#0200000500000000
(002.907451) can0 0FF#90006F7000000000
(002.907535) can0 181#4A214901
(002.913679) can0 0B0#0164410500000000
(002.917938) can0 0AA#0A070B0760067A
(002.925041) can0 0B0#0164420500000000
(002.926037) can0 0B0#0200000500000000
(002.928153) can0 0C0#0231000000000000
(002.929144) can0 0AA#05EDFF0001
(002.929223) can0 0AA#0143B242A0DC9FFE
(002.932959) can0 0C0#0100000000000000
(002.937665) can0 0C0#0000000000000000
(002.941187) can0 0AA#05ECFF0001
(002.941274) can0 0AA#0143B237A0DC9FFE
(002.950078) can0 0B0#0164440500000000
(002.951087) can0 0B0#0200000500000000
(002.952481) can0 182#4A534801
(002.975052) can0 0B0#0164430500000000
(002.976078) can0 0B0#0200000500000000
(002.980275) can0 0AA#05EFFF0001
(002.980360) can0 0AA#0143B22EA0DD9FFD
(002.997640) can0 0D0#0600000000000157
(003.000086) can0 0B0#0164430500000000
(003.001072) can0 0B0#0200000500000000
(003.007331) can0 181#4A214901
(003.020331) can0 0AA#05EFFF0001
(003.020418) can0 0AA#0143B230A0DD9FFE
(003.025076) can0 0B0#0164420500000000
(003.026065) can0 0B0#0200000500000000
(003.027218) can0 0C0#0232000000000000
(003.050029) can0 0B0#0164420500000000
(003.051083) can0 0B0#0200000500000000
(003.052300) can0 182#4A594801
(003.059481) can0 0FF#9000707000000000
(003.060408) can0 0AA#05EBFF0001
(003.060493) can0 0AA#0143B236A0DD9FFE
(003.075080) can0 0B0#0164430500000000
(003.076081) can0 0B0#0200000500000000
(003.089072) can0 0B0#0200000500000000
(003.100088) can0 0B0#0164440500000000
(003.101089) can0 0B0#0200000500000000
(003.107162) can0 181#4A264901
(003.118297) can0 0AA#0A070B0760067A
(003.125066) can0 0B0#0164430500000000
(003.126057) can0 0B0#0200000500000000
(003.129559) can0 0AA#05EBFF0001
(003.129645) can0 0AA#0143B230A0DD9FFE
(003.141553) can0 0AA#05EDFF0001
(003.141659) can0 0AA#0143B233A0DD9FFE
(003.150095) can0 0B0#0164420500000000
(003.151088) can0 0B0#0200000500000000
(003.152162) can0 182#4A574801
(003.164267) can0 0B0#0164420500000000
(003.175061) can0 0B0#0164430500000000
(003.176070) can0 0B0#0200000500000000
(003.180657) can0 0AA#05EDFF0001
(003.180743) can0 0AA#0143B22DA0DD9FFD
(003.197941) can0 0D0#0600000000000157
(003.200058) can0 0B0#0164440500000000
(003.201051) can0 0B0#0200000500000000
(003.207008) can0 181#4A254901
(003.211482) can0 0FF#9000707000000000
(003.220732) can0 0AA#05ECFF0001
(003.220820) can0 0AA#0143B22EA0DC9FFD
(003.225106) can0 0B0#0164420500000000
(003.226067) can0 0B0#0200000500000000
(003.234078) can0 0A0#0100000500000000
(003.234425) can0 0A0#02EC000500000000
(003.235997) can0 0AF#0201000500000000
(003.250073) can0 0B0#0164430500000000
(003.250880) can0 055#0100000000000000
(003.250993) can0 0B0#0200000500000000
(003.252021) can0 182#4A584801
(003.260776) can0 0AA#05EFFF0001
(003.260866) can0 0AA#0143B22CA0DD9FFD
(003.275123) can0 0B0#0164420500000000
(003.276088) can0 0B0#0200000500000000
(003.300100) can0 0B0#0164420500000000
(003.301070) can0 0B0#0200000500000000
(003.306865) can0 181#4A264901
(003.318754) can0 0AA#0A070B0760067A
(003.325049) can0 0B0#0164420500000000
(003.326038) can0 0B0#0200000500000000
(003.329911) can0 0AA#05EDFF0001
(003.330001) can0 0AA#0143B22AA0DC9FFE
(003.333128) can0 0C0#0100000000000000
(003.338018) can0 0C0#0000000000000000
(003.339664) can0 0B0#0200000500000000
(003.341941) can0 0AA#05ECFF0001
(003.342026) can0 0AA#0143B227A0DC9FFD
(003.347299) can0 0D0#0600000000000157
(003.350062) can0 0B0#0164420500000000
(003.351063) can0 0B0#0200000500000000
(003.351833) can0 182#4A584801
(003.363481) can0 0FF#9000707000000000
(003.375091) can0 0B0#0164420500000000
(003.376095) can0 0B0#0200000500000000
(003.381006) can0 0AA#05EAFF0001
(003.381092) can0 0AA#0143B226A0DC9FFD
(003.397261) can0 0D0#0600000000000157
(003.400110) can0 0B0#0164420500000000
(003.401069) can0 0B0#0200000500000000
(003.406705) can0 181#4A244901
(003.414824) can0 0B0#0164410500000000
(003.421081) can0 0AA#05EBFF0001
(003.421169) can0 0AA#0143B236A0DC9FFD
(003.425078) can0 0B0#0164430500000000
(003.426104) can0 0B0#0200000500000000
(003.448204) can0 0D0#0600000000000157
(003.450079) can0 0B0#0164420500000000
(003.451082) can0 0B0#0200000500000000
(003.451681) can0 182#4A584801
(003.461181) can0 0AA#05EDFF0001
(003.461267) can0 0AA#0143B238A0DC9FFD
(003.475087) can0 0B0#0164420500000000
(003.476060) can0 0B0#0200000500000000
(003.500097) can0 0B0#0164440500000000
(003.501072) can0 0B0#0200000500000000
(003.506526) can0 181#4A224901
(003.515468) can0 0FF#9000707000000000
(003.519076) can0 0AA#0A070B0760067A
(003.525067) can0 0B0#0164430500000000
(003.526086) can0 0B0#0200000500000000
(003.530309) can0 0AA#05EFFF0001
(003.530394) can0 0AA#0143B22BA0DC9FFE
(003.542315) can0 0AA#05EDFF0001
(003.542408) can0 0AA#0143B223A0DC9FFE
(003.543131) can0 0D0#0800000000000000
(003.548171) can0 0D0#0600000000000157
(003.550124) can0 0B0#0164430500000000
(003.551094) can0 0B0#0200000500000000
(003.551558) can0 182#4A584801
(003.575056) can0 0B0#0164420500000000
(003.576110) can0 0B0#0200000500000000
(003.581404) can0 0AA#05ECFF0001
(003.581491) can0 0AA#0143B22EA0DD9FFE
(003.590268) can0 0B0#0200000500000000
(003.600104) can0 0B0#0164420500000000
(003.601101) can0 0B0#0200000500000000
(003.606384) can0 181#4A1F4901
(003.621483) can0 0AA#05ECFF0001
(003.621571) can0 0AA#0143B234A0DC9FFD
(003.625077) can0 0B0#0164440500000000
(003.626072) can0 0B0#0200000500000000
(003.650096) can0 0B0#0164410500000000
(003.651084) can0 0B0#0200000500000000
(003.651408) can0 182#4A594801
(003.661523) can0 0AA#05ECFF0001
(003.661612) can0 0AA#0143B238A0DC9FFE
(003.665422) can0 0B0#0164410500000000
(003.667476) can0 0FF#9000707000000000
(003.675104) can0 0B0#0164440500000000
(003.676078) can0 0B0#0200000500000000
(003.700081) can0 0B0#0164430500000000
(003.701074) can0 0B0#0200000500000000
(003.706240) can0 181#4A224901
(003.719410) can0 0AA#0A070B0760067A
(003.725064) can0 0B0#0164420500000000
(003.726084) can0 0B0#0200000500000000
(003.729107) can0 0AF#0201000500000000
(003.730660) can0 0AA#05EAFF0001
(003.730743) can0 0AA#0143B21EA0DD9FFD
(003.742719) can0 0AA#05EBFF0001
(003.742814) can0 0AA#0143B223A0DD9FFD
(003.747890) can0 0D0#0600000000000157
(003.750065) can0 0B0#0164420500000000
(003.751060) can0 0B0#0200000500000000
(003.751211) can0 182#4A574801
(003.775087) can0 0B0#0164420500000000
(003.776095) can0 0B0#0200000500000000
(003.781735) can0 0AA#05EDFF0001
(003.781833) can0 0AA#0143B22EA0DD9FFD
(003.798181) can0 0D0#0600000000000157
(003.800080) can0 0B0#0164430500000000
(003.801075) can0 0B0#0200000500000000
(003.806065) can0 181#4A214901
(003.819473) can0 0FF#90006F7000000000
(003.821836) can0 0AA#05ECFF0001
(003.821921) can0 0AA#0143B231A0DD9FFD
(003.825126) can0 0B0#0164430500000000
(003.826110) can0 0B0#0200000500000000
(003.833055) can0 0C0#0100000000000000
(003.837750) can0 0C0#0000000000000000
(003.840789) can0 0B0#0200000500000000
(003.847787) can0 0D0#0600000000000157
(003.850108) can0 0B0#0164420500000000
(003.851099) can0 0B0#0200000500000000
(003.851184) can0 182#4A564801
(003.861925) can0 0AA#05EBFF0001
(003.862013) can0 0AA#0143B22FA0DD9FFD
(003.875094) can0 0B0#0164430500000000
(003.876107) can0 0B0#0200000500000000
(003.900090) can0 0B0#0164420500000000
(003.901110) can0 0B0#0200000500000000
(003.905909) can0 181#4A254901
(003.916003) can0 0B0#0164430500000000
(003.919816) can0 0AA#0A070B0760067A
(003.925083) can0 0B0#0164410500000000
(003.926088) can0 0B0#0200000500000000
(003.927729) can0 0C0#0231000000000000
(003.931008) can0 0AA#05ECFF0001
(003.931091) can0 0AA#0143B233A0DE9FFC
(003.932483) can0 0C0#0100000000000000
(003.937406) can0 0C0#0000000000000000
(003.943049) can0 0AA#05EBFF0001
(003.943135) can0 0AA#0143B237A0DE9FFD
(003.950132) can0 0B0#0164440500000000
(003.950938) can0 182#4A5A4801
(003.951052) can0 0B0#0200000500000000
(003.971481) can0 0FF#9000707000000000
(003.975077) can0 0B0#0164420500000000
(003.976100) can0 0B0#0200000500000000
(003.982145) can0 0AA#05ECFF0001
(003.982231) can0 0AA#0143B239A0DD9FFD
(004.000120) can0 0B0#0164420500000000
(004.001098) can0 0B0#0200000500000000
(004.005756) can0 181#4A1C4901
(004.022185) can0 0AA#05EBFF0001
(004.022271) can0 0AA#0143B237A0DD9FFD
(004.025096) can0 0B0#0164440500000000
(004.026063) can0 0B0#0200000500000000
(004.032952) can0 0C0#0100000000000000
(004.037984) can0 0C0#0000000000000000
(004.042708) can0 0D0#0800000000000000
(004.047768) can0 0D0#0600000000000157
(004.050074) can0 0B0#0164420500000000
(004.050766) can0 182#4A574801
(004.051060) can0 0B0#0200000500000000
(004.062288) can0 0AA#05EBFF0001
(004.062376) can0 0AA#0143B230A0DD9FFD
(004.075137) can0 0B0#0164410500000000
(004.076119) can0 0B0#0200000500000000
(004.091388) can0 0B0#0200000500000000
(004.098105) can0 0D0#0600000000000157
(004.100111) can0 0B0#0164430500000000
(004.101103) can0 0B0#0200000500000000
(004.105597) can0 181#4A224901
(004.120169) can0 0AA#0A070B0760067A
(004.123476) can0 0FF#9000707200000000
(004.125086) can0 0B0#0164420500000000
(004.126111) can0 0B0#0200000500000000
(004.131398) can0 0AA#05EFFF0001
(004.131486) can0 0AA#0143B233A0DD9FFD
(004.143410) can0 0AA#05EDFF0001
(004.143501) can0 0AA#0143B22BA0DD9FFD
(004.147720) can0 0D0#0600000000000157
(004.150094) can0 0B0#0164420500000000
(004.150561) can0 182#4A564801
(004.151077) can0 0B0#0200000500000000
(004.166585) can0 0B0#0164430500000000
(004.175090) can0 0B0#0164430500000000
(004.176094) can0 0B0#0200000500000000
(004.182495) can0 0AA#05EFFF0001
(004.182582) can0 0AA#0143B22DA0DD9FFD
(004.200137) can0 0B0#0164430500000000
(004.201085) can0 0B0#0200000500000000
(004.205415) can0 181#4A254901
(004.222579) can0 0AA#05EBFF0001
(004.222668) can0 0AA#0143B229A0DD9FFD
(004.225126) can0 0B0#0164420500000000
(004.226104) can0 0B0#0200000500000000
(004.229160) can0 0A0#0100000500000000
(004.229511) can0 0A0#02EC000500000000
(004.230375) can0 0AF#0201000500000000
(004.233205) can0 0C0#0100000000000000
(004.233880) can0 055#0100000000000000
(004.247903) can0 0D0#0600000000000157
(004.250092) can0 0B0#0164420500000000
(004.250408) can0 182#4A5E4801
(004.251087) can0 0B0#0200000500000000
(004.262665) can0 0AA#05EDFF0001
(004.262768) can0 0AA#0143B22BA0DC9FFE
(004.275081) can0 0B0#0164430500000000
(004.275470) can0 0FF#9000707000000000
(004.276102) can0 0B0#0200000500000000
(004.297829) can0 0D0#0600000000000157
(004.300083) can0 0B0#0164430500000000
(004.301086) can0 0B0#0200000500000000
(004.305296) can0 181#4A234901
(004.320593) can0 0AA#0A070B0760067A
(004.325114) can0 0B0#0164440500000000
(004.326106) can0 0B0#0200000500000000
(004.331776) can0 0AA#05EDFF0001
(004.331863) can0 0AA#0143B232A0DD9FFD
(004.342002) can0 0B0#0200000500000000
(004.343803) can0 0AA#05ECFF0001
(004.343889) can0 0AA#0143B226A0DD9FFC
(004.347550) can0 0D0#0600000000000157
(004.350127) can0 0B0#0164420500000000
(004.350216) can0 182#4A574801
(004.351096) can0 0B0#0200000500000000
(004.375109) can0 0B0#0164420500000000
(004.376109) can0 0B0#0200000500000000
(004.382855) can0 0AA#05ECFF0001
(004.382941) can0 0AA#0143B23AA0DD9FFE
(004.398016) can0 0D0#0600000000000157
(004.400108) can0 0B0#0164440500000000
(004.401117) can0 0B0#0200000500000000
(004.405123) can0 181#4A264901
(004.417124) can0 0B0#0164430500000000
(004.422942) can0 0AA#05ECFF0001
(004.423030) can0 0AA#0143B22DA0DD9FFC
(004.425124) can0 0B0#0164440500000000
(004.426130) can0 0B0#0200000500000000
(004.427491) can0 0FF#9000707000000000
(004.433015) can0 0C0#0100000000000000
(004.437905) can0 0C0#0000000000000000
(004.447420) can0 0D0#0600000000000157
(004.450077) can0 0B0#0164440500000000
(004.450162) can0 182#4A554801
(004.451080) can0 0B0#0200000500000000
(004.463038) can0 0AA#05EFFF0001
(004.463124) can0 0AA#0143B237A0DC9FFE
(004.475124) can0 0B0#0164430500000000
(004.476123) can0 0B0#0200000500000000
(004.497638) can0 0D0#0600000000000157
(004.500131) can0 0B0#0164440500000000
(004.501116) can0 0B0#0200000500000000
(004.504959) can0 181#4A234901
(004.520922) can0 0AA#0A070B0760067B
(004.525113) can0 0B0#0164420500000000
(004.526117) can0 0B0#0200000500000000
(004.532171) can0 0AA#05ECFF0001
(004.532257) can0 0AA#0143B230A0DD9FFD
(004.544169) can0 0AA#05ECFF0001
(004.544265) can0 0AA#0143B22BA0DD9FFD
(004.547269) can0 0D0#0600000000000157
(004.549972) can0 182#4A5A4801
(004.550059) can0 0B0#0164420500000000
(004.551101) can0 0B0#0200000500000000
(004.575112) can0 0B0#0164430500000000
(004.576132) can0 0B0#0200000500000000
(004.581527) can0 0FF#9000707000000000
(004.583241) can0 0AA#05EDFF0001
(004.583325) can0 0AA#0143B23CA0DD9FFD
(004.592539) can0 0B0#0200000500000000
(004.597772) can0 0D0#0600000000000157
(004.600108) can0 0B0#0164430500000000
(004.601090) can0 0B0#0200000500000000
(004.604798) can0 181#4A254901
(004.623346) can0 0AA#05EAFF0001
(004.623435) can0 0AA#0143B228A0DC9FFD
(004.625123) can0 0B0#0164430500000000
(004.626117) can0 0B0#0200000500000000
(004.638205) can0 0C0#0000000000000000
(004.647741) can0 0D0#0600000000000157
(004.649797) can0 182#4A584801
(004.650087) can0 0B0#0164430500000000
(004.651134) can0 0B0#0200000500000000
(004.663377) can0 0AA#05EBFF0001
(004.663462) can0 0AA#0143B22EA0DD9FFD
(004.667727) can0 0B0#0164440500000000
(004.675116) can0 0B0#0164420500000000
(004.676133) can0 0B0#0200000500000000
(004.698149) can0 0D0#0600000000000157
(004.700123) can0 0B0#0164420500000000
(004.701122) can0 0B0#0200000500000000
(004.704648) can0 181#4A214901
(004.721267) can0 0AA#0A070B0760067B
(004.725087) can0 0B0#0164420500000000
(004.726112) can0 0B0#0200000500000000
(004.729182) can0 0AF#0201000500000000
(004.732510) can0 0AA#05ECFF0001
(004.732595) can0 0AA#0143B22AA0DD9FFD
(004.733501) can0 0FF#9000707000000000
(004.744566) can0 0AA#05ECFF0001
(004.744659) can0 0AA#0143B229A0DD9FFD
(004.748183) can0 0D0#0600000000000157
(004.749616) can0 182#4A5A4801
(004.750106) can0 0B0#0164420500000000
(004.751098) can0 0B0#0200000500000000
(004.775120) can0 0B0#0164420500000000
(004.776117) can0 0B0#0200000500000000
(004.783591) can0 0AA#05EBFF0001
(004.783691) can0 0AA#0143B224A0DD9FFC
(004.800108) can0 0B0#0164420500000000
(004.801131) can0 0B0#0200000500000000
(004.804491) can0 181#4A274901
(004.823667) can0 0AA#05EDFF0001
(004.823756) can0 0AA#0143B22BA0DD9FFD
(004.825114) can0 0B0#0164420500000000
(004.826139) can0 0B0#0200000500000000
(004.827264) can0 0C0#0231000000000000
(004.832360) can0 0C0#0100000000000000
(004.843102) can0 0B0#0200000500000000
(004.849472) can0 182#4A554801
(004.850111) can0 0B0#0164420500000000
(004.851122) can0 0B0#0200000500000000
(004.863769) can0 0AA#05EBFF0001
(004.863856) can0 0AA#0143B22EA0DC9FFD
(004.875107) can0 0B0#0164410500000000
(004.876126) can0 0B0#0200000500000000
(004.885494) can0 0FF#9000707000000000
(004.900131) can0 0B0#0164420500000000
(004.901101) can0 0B0#0200000500000000
(004.904306) can0 181#4A234901
(004.918299) can0 0B0#0164440500000000
(004.921652) can0 0AA#0A070B0760067B
(004.925124) can0 0B0#0164420500000000
(004.926109) can0 0B0#0200000500000000
(004.932862) can0 0AA#05EFFF0001
(004.932946) can0 0AA#0143B234A0DD9FFE
(004.938105) can0 0C0#0000000000000000
(004.944921) can0 0AA#05EDFF0001
(004.945016) can0 0AA#0143B231A0DD9FFE
(004.947279) can0 0D0#0600000000000157
(004.949340) can0 182#4A5A4801
(004.950132) can0 0B0#0164420500000000
(004.951127) can0 0B0#0200000500000000
(004.975122) can0 0B0#0164430500000000
(004.976118) can0 0B0#0200000500000000
(004.983997) can0 0AA#05EDFF0001
(004.984085) can0 0AA#0143B22EA0DC9FFD
(004.997797) can0 0D0#0600000000000157
(005.000104) can0 0B0#0164420500000000
(005.001126) can0 0B0#0200000500000000
(005.004169) can0 181#4A224901
(005.024033) can0 0AA#05EBFF0001
(005.024119) can0 0AA#0143B22BA0DC9FFD
(005.025100) can0 0B0#0164420500000000
(005.026088) can0 0B0#0200000500000000
(005.037513) can0 0FF#9000707000000000
(005.049188) can0 182#4A5A4801
(005.050147) can0 0B0#0164430500000000
(005.051142) can0 0B0#0200000500000000
(005.064116) can0 0AA#05EDFF0001
(005.064204) can0 0AA#0143B22FA0DD9FFD
(005.075153) can0 0B0#0164420500000000
(005.076149) can0 0B0#0200000500000000
(005.093685) can0 0B0#0200000500000000
(005.100160) can0 0B0#0164420500000000
(005.101139) can0 0B0#0200000500000000
(005.104017) can0 181#4A254901
(005.122009) can0 0AA#0A070B0760067B
(005.125122) can0 0B0#0164420500000000
(005.126147) can0 0B0#0200000500000000
(005.133268) can0 0AA#05ECFF0001
(005.133357) can0 0AA#0143B239A0DC9FFF
(005.145266) can0 0AA#05EAFF0001
(005.145358) can0 0AA#0143B226A0DC9FFF
(005.147963) can0 0D0#0600000000000157
(005.149019) can0 182#4A5B4801
(005.150110) can0 0B0#0164430500000000
(005.151101) can0 0B0#0200000500000000
(005.168862) can0 0B0#0164420500000000
(005.175139) can0 0B0#0164410500000000
(005.176092) can0 0B0#0200000500000000
(005.184338) can0 0AA#05ECFF0001
(005.184425) can0 0AA#0143B22CA0DC9FFE
(005.189534) can0 0FF#9000707000000000
(005.200159) can0 0B0#0164430500000000
(005.201132) can0 0B0#0200000500000000
(005.203859) can0 181#4A204901
(005.224404) can0 0AA#05ECFF0001
(005.224495) can0 0AA#0143B23BA0DD9FFE
(005.225114) can0 0B0#0164430500000000
(005.226155) can0 0B0#0200000500000000
(005.228703) can0 0A0#0100000500000000
(005.229057) can0 0A0#02EC000500000000
(005.229924) can0 0AF#0201000500000000
(005.248148) can0 0D0#0600000000000157
(005.248926) can0 055#0100000000000000
(005.249010) can0 182#4A594801
(005.250155) can0 0B0#0164420500000000
(005.251146) can0 0B0#0200000500000000
(005.264514) can0 0AA#05EDFF0001
(005.264606) can0 0AA#0143B230A0DD9FFD
(005.275113) can0 0B0#0164420500000000
(005.276152) can0 0B0#0200000500000000
(005.300136) can0 0B0#0164410500000000
(005.301145) can0 0B0#0200000500000000
(005.303720) can0 181#4A224901
(005.322436) can0 0AA#0A070B0760067B
(005.325173) can0 0B0#0164430500000000
(005.326149) can0 0B0#0200000500000000
(005.327945) can0 0C0#0231000000000000
(005.333023) can0 0C0#0100000000000000
(005.333592) can0 0AA#05EDFF0001
(005.333671) can0 0AA#0143B22FA0DC9FFD
(005.338009) can0 0C0#0000000000000000
(005.341509) can0 0FF#9000707000000000
(005.344274) can0 0B0#0200000500000000
(005.345625) can0 0AA#05ECFF0001
(005.345709) can0 0AA#0143B230A0DC9FFD
(005.347543) can0 0D0#0600000000000157
(005.348685) can0 182#4A5F4801
(005.350119) can0 0B0#0164410500000000
(005.351120) can0 0B0#0200000500000000
(005.375137) can0 0B0#0164420500000000
(005.376131) can0 0B0#0200000500000000
(005.384712) can0 0AA#05EBFF0001
(005.384800) can0 0AA#0143B224A0DD9FFD
(005.397468) can0 0D0#0600000000000157
(005.400145) can0 0B0#0164410500000000
(005.401145) can0 0B0#0200000500000000
(005.403539) can0 181#4A224901
(005.419423) can0 0B0#0164420500000000
(005.424731) can0 0AA#05ECFF0001
(005.424812) can0 0AA#0143B22CA0DD9FFD
(005.425106) can0 0B0#0164430500000000
(005.426116) can0 0B0#0200000500000000
(005.447945) can0 0D0#0600000000000157
(005.448562) can0 182#4A564801
(005.450114) can0 0B0#0164430500000000
(005.451125) can0 0B0#0200000500000000
(005.464849) can0 0AA#05EBFF0001
(005.464937) can0 0AA#0143B226A0DC9FFD
(005.475191) can0 0B0#0164430500000000
(005.476156) can0 0B0#0200000500000000
(005.493501) can0 0FF#9000707100000000
(005.500144) can0 0B0#0164430500000000
(005.501121) can0 0B0#0200000500000000
(005.503391) can0 181#4A1E4901
(005.522719) can0 0AA#0A070B0760067B
(005.525133) can0 0B0#0164430500000000
(005.526162) can0 0B0#0200000500000000
(005.528280) can0 0C0#0231000000000000
(005.533157) can0 0C0#0100000000000000
(005.533961) can0 0AA#05EFFF0001
(005.534046) can0 0AA#0143B22CA0DC9FFE
(005.538126) can0 0C0#0000000000000000
(005.542921) can0 0D0#0800000000000000
(005.545958) can0 0AA#05EDFF0001
(005.546054) can0 0AA#0143B22FA0DC9FFE
(005.548410) can0 182#4A5B4801
(005.550143) can0 0B0#0164430500000000
(005.551175) can0 0B0#0200000500000000
(005.575126) can0 0B0#0164430500000000
(005.576135) can0 0B0#0200000500000000
(005.585044) can0 0AA#05EFFF0001
(005.585132) can0 0AA#0143B231A0DC9FFD
(005.594881) can0 0B0#0200000500000000
(005.597509) can0 0D0#0600000000000157
(005.600131) can0 0B0#0164430500000000
(005.601141) can0 0B0#0200000500000000
(005.603204) can0 181#4A254901
(005.625129) can0 0B0#0164420500000000
(005.625219) can0 0AA#05ECFF0001
(005.625269) can0 0AA#0143B22BA0DD9FFD
(005.626123) can0 0B0#0200000500000000
(005.633219) can0 0C0#0100000000000000
(005.638214) can0 0C0#0000000000000000
(005.645515) can0 0FF#9000707000000000
(005.647730) can0 0D0#0600000000000157
(005.648202) can0 182#4A574801
(005.650130) can0 0B0#0164430500000000
(005.651164) can0 0B0#0200000500000000
(005.665170) can0 0AA#05EDFF0001
(005.665258) can0 0AA#0143B22EA0DC9FFD
(005.669998) can0 0B0#0164420500000000
(005.675175) can0 0B0#0164410500000000
(005.676129) can0 0B0#0200000500000000
(005.700115) can0 0B0#0164410500000000
(005.701134) can0 0B0#0200000500000000
(005.703072) can0 181#4A264901
(005.723073) can0 0AA#0A070B0760067B
(005.725115) can0 0B0#0164420500000000
(005.726108) can0 0B0#0200000500000000
(005.727770) can0 0C0#0231000000000000
(005.731498) can0 0AF#0201000000000000
(005.732608) can0 0C0#0100000000000000
(005.734316) can0 0AA#05ECFF0001
(005.734399) can0 0AA#0143B230A0DC9FFE
(005.737599) can0 0C0#0000000000000000
(005.746343) can0 0AA#05EBFF0001
(005.746430) can0 0AA#0143B234A0DC9FFE
(005.748128) can0 182#4A584801
(005.750138) can0 0B0#0164430500000000
(005.751133) can0 0B0#0200000500000000
(005.775163) can0 0B0#0164410500000000
(005.776157) can0 0B0#0200000500000000
(005.785395) can0 0AA#05EDFF0001
(005.785482) can0 0AA#0143B227A0DC9FFE
(005.797524) can0 0FF#90006F7000000000
(005.800139) can0 0B0#0164430500000000
(005.801165) can0 0B0#0200000500000000
(005.802906) can0 181#4A224901
(005.825132) can0 0B0#0164420500000000
(005.825468) can0 0AA#05EFFF0001
(005.825533) can0 0AA#0143B230A0DD9FFD
(005.826131) can0 0B0#0200000500000000
(005.845410) can0 0B0#0200000500000000
(005.847901) can0 182#4A5A4801
(005.850149) can0 0B0#0164410500000000
(005.851150) can0 0B0#0200000500000000
(005.865582) can0 0AA#05ECFF0001
(005.865669) can0 0AA#0143B233A0DD9FFD
(005.875142) can0 0B0#0164430500000000
(005.876151) can0 0B0#0200000500000000
(005.900157) can0 0B0#0164430500000000
(005.901136) can0 0B0#0200000500000000
(005.902786) can0 181#4A234901
(005.920597) can0 0B0#0164410500000000
(005.923469) can0 0AA#0A070B0760067B
(005.925146) can0 0B0#0164420500000000
(005.926145) can0 0B0#0200000500000000
(005.933019) can0 0C0#0100000000000000
(005.934698) can0 0AA#05ECFF0001
(005.934781) can0 0AA#0143B236A0DC9FFE
(005.938121) can0 0C0#0000000000000000
(005.946713) can0 0AA#05EDFF0001
(005.946801) can0 0AA#0143B241A0DC9FFE
(005.947783) can0 182#4A5C4801
(005.949530) can0 0FF#9000707000000000
(005.950132) can0 0B0#0164430500000000
(005.951141) can0 0B0#0200000500000000
(005.975139) can0 0B0#0164430500000000
(005.976163) can0 0B0#0200000500000000
(005.985812) can0 0AA#05EDFF0001
(005.985898) can0 0AA#0143B22EA0DD9FFE
(005.997886) can0 0D0#0600000000000157
(006.000122) can0 0B0#0164420500000000
(006.001111) can0 0B0#0200000500000000
(006.002565) can0 181#4A234901
(006.025167) can0 0B0#0164440500000000
(006.025860) can0 0AA#05F0FF0001
(006.025940) can0 0AA#0143B222A0DD9FFD
(006.026112) can0 0B0#0200000500000000
(006.043139) can0 0D0#0800000000000000
(006.047620) can0 182#4A594801
(006.047787) can0 0D0#0600000000000157
(006.050145) can0 0B0#0164430500000000
(006.051154) can0 0B0#0200000500000000
(006.065924) can0 0AA#05EFFF0001
(006.066011) can0 0AA#0143B225A0DC9FFD
(006.075197) can0 0B0#0164420500000000
(006.076160) can0 0B0#0200000500000000
(006.095986) can0 0B0#0200000500000000
(006.098033) can0 0D0#0600000000000157
(006.100161) can0 0B0#0164430500000000
(006.101169) can0 0B0#0200000500000000
(006.102430) can0 181#4A244901
(006.103520) can0 0FF#9000707000000000
(006.123824) can0 0AA#0A070B0760067B
(006.125128) can0 0B0#0164420500000000
(006.126149) can0 0B0#0200000500000000
(006.135090) can0 0AA#05EDFF0001
(006.135178) can0 0AA#0143B22FA0DC9FFD
(006.147129) can0 0AA#05EBFF0001
(006.147223) can0 0AA#0143B22BA0DC9FFD
(006.147419) can0 182#4A574801
(006.150144) can0 0B0#0164440500000000
(006.151152) can0 0B0#0200000500000000
(006.171193) can0 0B0#0164430500000000
(006.175149) can0 0B0#0164440500000000
(006.176148) can0 0B0#0200000500000000
(006.186155) can0 0AA#05ECFF0001
(006.186243) can0 0AA#0143B228A0DC9FFD
(006.200207) can0 0B0#0164430500000000
(006.201148) can0 0B0#0200000500000000
(006.202266) can0 181#4A244901
(006.225182) can0 0B0#0164420500000000
(006.226179) can0 0B0#0200000500000000
(006.226263) can0 0AA#05EDFF0001
(006.226315) can0 0AA#0143B238A0DD9FFE
(006.227553) can0 0C0#0231000000000000
(006.228941) can0 0A0#0143B238A0DD9FFE
(006.229689) can0 0A0#02ECB238A0DD9FFE
(006.230056) can0 0AF#02010038A0DD9FFE
(006.247291) can0 182#4A5A4801
(006.247931) can0 055#0100000000000000
(006.250181) can0 0B0#0164420500000000
(006.251172) can0 0B0#0200000500000000
(006.255529) can0 0FF#9000707100000000
(006.266346) can0 0AA#05EBFF0001
(006.266434) can0 0AA#0143B23EA0DC9FFC
(006.275139) can0 0B0#0164430500000000
(006.276139) can0 0B0#0200000500000000
(006.300185) can0 0B0#0164440500000000
(006.301163) can0 0B0#0200000500000000
(006.302170) can0 181#4A224901
(006.324247) can0 0AA#0A070B0760067B
(006.325166) can0 0B0#0164420500000000
(006.326170) can0 0B0#0200000500000000
(006.327874) can0 0C0#0231000000000000
(006.332564) can0 0C0#0100000000000000
(006.335431) can0 0AA#05EDFF0001
(006.335509) can0 0AA#0143B227A0DC9FFD
(006.337593) can0 0C0#0000000000000000
(006.346596) can0 0B0#0200000500000000
(006.347091) can0 182#4A574801
(006.347451) can0 0AA#05ECFF0001
(006.347523) can0 0AA#0143B21FA0DC9FFD
(006.350170) can0 0B0#0164420500000000
(006.351157) can0 0B0#0200000500000000
(006.375147) can0 0B0#0164430500000000
(006.376179) can0 0B0#0200000500000000
(006.386571) can0 0AA#05ECFF0001
(006.386658) can0 0AA#0143B22BA0DD9FFD
(006.400142) can0 0B0#0164410500000000
(006.401188) can0 0B0#0200000500000000
(006.401956) can0 181#4A244901
(006.407531) can0 0FF#9000707000000000
(006.421757) can0 0B0#0164420500000000
(006.425156) can0 0B0#0164420500000000
(006.426149) can0 0B0#0200000500000000
(006.426608) can0 0AA#05EBFF0001
(006.426681) can0 0AA#0143B232A0DC9FFD
(006.446974) can0 182#4A574801
(006.450162) can0 0B0#0164410500000000
(006.451184) can0 0B0#0200000500000000
(006.466695) can0 0AA#05EDFF0001
(006.466785) can0 0AA#0143B22FA0DD9FFD
(006.475173) can0 0B0#0164420500000000
(006.476166) can0 0B0#0200000500000000
(006.500161) can0 0B0#0164430500000000
(006.501173) can0 0B0#0200000500000000
(006.501787) can0 181#4A224901
(006.524592) can0 0AA#0A070B0760067B
(006.525141) can0 0B0#0164430500000000
(006.526156) can0 0B0#0200000500000000
(006.535853) can0 0AA#05ECFF0001
(006.535939) can0 0AA#0143B225A0DC9FFC
(006.546786) can0 182#4A554801
(006.547828) can0 0AA#05EDFF0001
(006.547907) can0 0AA#0143B22EA0DC9FFE
(006.550162) can0 0B0#0164430500000000
(006.551161) can0 0B0#0200000500000000
(006.559555) can0 0FF#9000707000000000
(006.575158) can0 0B0#0164430500000000
(006.576168) can0 0B0#0200000500000000
(006.586928) can0 0AA#05EDFF0001
(006.587015) can0 0AA#0143B22BA0DD9FFE
(006.597171) can0 0B0#0200000500000000
(006.598012) can0 0D0#0600000000000157
(006.600172) can0 0B0#0164420500000000
(006.601167) can0 0B0#0200000500000000
(006.601629) can0 181#4A244901
(006.625188) can0 0B0#0164430500000000
(006.626188) can0 0B0#0200000500000000
(006.627010) can0 0AA#05EDFF0001
(006.627095) can0 0AA#0143B22DA0DC9FFD
(006.627378) can0 0C0#0231000000000000
(006.646625) can0 182#4A544801
(006.650203) can0 0B0#0164430500000000
(006.651186) can0 0B0#0200000500000000
(006.667071) can0 0AA#05ECFF0001
(006.667158) can0 0AA#0143B22EA0DD9FFD
(006.672306) can0 0B0#0164420500000000
(006.675148) can0 0B0#0164430500000000
(006.676177) can0 0B0#0200000500000000
(006.700154) can0 0B0#0164420500000000
(006.701168) can0 0B0#0200000500000000
(006.701463) can0 181#4A214901
(006.711547) can0 0FF#9000707000000000
(006.725015) can0 0AA#0A070B0760067B
(006.725110) can0 0B0#0164430500000000
(006.726197) can0 0B0#0200000500000000
(006.734183) can0 0AF#0201000500000000
(006.736207) can0 0AA#05ECFF0001
(006.736289) can0 0AA#0143B226A0DD9FFD
(006.746540) can0 182#4A574801
(006.748251) can0 0AA#05EFFF0001
(006.748349) can0 0AA#0143B22BA0DD9FFD
(006.750199) can0 0B0#0164440500000000
(006.751177) can0 0B0#0200000500000000
(006.775180) can0 0B0#0164430500000000
(006.776163) can0 0B0#0200000500000000
(006.787322) can0 0AA#05EFFF0001
(006.787409) can0 0AA#0143B231A0DD9FFD
(006.800170) can0 0B0#0164430500000000
(006.801175) can0 0B0#0200000500000000
(006.801260) can0 181#4A204901
(006.825170) can0 0B0#0164430500000000
(006.826173) can0 0B0#0200000500000000
(006.827364) can0 0AA#05ECFF0001
(006.827448) can0 0AA#0143B233A0DD9FFD
(006.846380) can0 182#4A5D4801
(006.847736) can0 0B0#0200000500000000
(006.850180) can0 0B0#0164440500000000
(006.851143) can0 0B0#0200000500000000
(006.863550) can0 0FF#9000707000000000
(006.867451) can0 0AA#05ECFF0001
(006.867536) can0 0AA#0143B228A0DD9FFD
(006.875206) can0 0B0#0164420500000000
(006.876195) can0 0B0#0200000500000000
(006.900159) can0 0B0#0164420500000000
(006.901176) can0 0B0#0200000500000000
(006.901262) can0 181#4A264901
(006.922894) can0 0B0#0164430500000000
(006.925179) can0 0B0#0164430500000000
(006.925263) can0 0AA#0A070B07600679
(006.926184) can0 0B0#0200000500000000
(006.927841) can0 0C0#0231000000000000
(006.932733) can0 0C0#0100000000000000
(006.936573) can0 0AA#05EDFF0001
(006.936657) can0 0AA#0143B231A0DD9FFD
(006.937546) can0 0C0#0000000000000000
(006.946182) can0 182#4A554801
(006.947301) can0 0D0#0600000000000157
(006.948571) can0 0AA#05EDFF0001
(006.948665) can0 0AA#0143B232A0DD9FFD
(006.950227) can0 0B0#0164440500000000
(006.951190) can0 0B0#0200000500000000
(006.975184) can0 0B0#0164430500000000
(006.976181) can0 0B0#0200000500000000
(006.987661) can0 0AA#05EBFF0001
(006.987747) can0 0AA#0143B233A0DC9FFE
(007.000230) can0 0B0#0164430500000000
(007.001013) can0 181#4A244901
(007.001124) can0 0B0#0200000500000000
(007.015540) can0 0FF#9000707000000000
(007.025194) can0 0B0#0164430500000000
(007.026181) can0 0B0#0200000500000000
(007.027657) can0 0C0#0231000000000000
(007.027742) can0 0AA#05ECFF0001
(007.027791) can0 0AA#0143B22EA0DD9FFE
(007.032378) can0 0C0#0100000000000000
(007.046030) can0 182#4A554801
(007.050208) can0 0B0#0164410500000000
(007.051190) can0 0B0#0200000500000000
(007.067796) can0 0AA#05ECFF0001
(007.067882) can0 0AA#0143B236A0DD9FFD
(007.075187) can0 0B0#0164420500000000
(007.076191) can0 0B0#0200000500000000
(007.098289) can0 0B0#0200000500000000
(007.100160) can0 0B0#0164430500000000
(007.100852) can0 181#4A284901
(007.101167) can0 0B0#0200000500000000
(007.125191) can0 0B0#0164420500000000
(007.125686) can0 0AA#0A070B07600679
(007.126176) can0 0B0#0200000500000000
(007.133209) can0 0C0#0100000000000000
(007.136933) can0 0AA#05EBFF0001
(007.137017) can0 0AA#0143B22FA0DD9FFD
(007.137944) can0 0C0#0000000000000000
(007.145849) can0 182#4A5D4801
(007.148970) can0 0AA#05ECFF0001
(007.149056) can0 0AA#0143B225A0DD9FFD
(007.150201) can0 0B0#0164430500000000
(007.151194) can0 0B0#0200000500000000
(007.167528) can0 0FF#9000707000000000
(007.173479) can0 0B0#0164440500000000
(007.175197) can0 0B0#0164430500000000
(007.176201) can0 0B0#0200000500000000
(007.188006) can0 0AA#05EBFF0001
(007.188144) can0 0AA#0143B22FA0DD9FFC
(007.200204) can0 0B0#0164430500000000
(007.200674) can0 181#4A224901
(007.201199) can0 0B0#0200000500000000
(007.225195) can0 0B0#0164440500000000
(007.226180) can0 0B0#0200000500000000
(007.227447) can0 0C0#0231000000000000
(007.228147) can0 0AA#05EDFF0001
(007.228227) can0 0AA#0143B23BA0DD9FFD
(007.230004) can0 0A0#0143B23BA0DD9FFD
(007.230716) can0 0A0#02ECB23BA0DD9FFD
(007.231057) can0 0AF#0201003BA0DD9FFD
(007.238281) can0 0C0#0000000000000000
(007.238992) can0 055#0100000000000000
(007.245667) can0 182#4A584801
(007.248008) can0 0D0#0600000000000157
(007.250188) can0 0B0#0164430500000000
(007.251170) can0 0B0#0200000500000000
(007.268187) can0 0AA#05EDFF0001
(007.268275) can0 0AA#0143B23AA0DC9FFD
(007.275166) can0 0B0#0164430500000000
(007.276171) can0 0B0#0200000500000000
(007.300194) can0 0B0#0164420500000000
(007.300502) can0 181#4A224901
(007.301193) can0 0B0#0200000500000000
(007.319540) can0 0FF#9000707200000000
(007.325203) can0 0B0#0164420500000000
(007.326058) can0 0AA#0A070B07600679
(007.326142) can0 0B0#0200000500000000
(007.327948) can0 0C0#0231000000000000
(007.333014) can0 0C0#0100000000000000
(007.337270) can0 0AA#05ECFF0001
(007.337354) can0 0AA#0143B229A0DD9FFE
(007.337948) can0 0C0#0000000000000000
(007.345569) can0 182#4A584801
(007.348917) can0 0B0#0200000500000000
(007.349290) can0 0AA#05ECFF0001
(007.349355) can0 0AA#0143B223A0DD9FFE
(007.350195) can0 0B0#0164420500000000
(007.351217) can0 0B0#0200000500000000
(007.375172) can0 0B0#0164430500000000
(007.376198) can0 0B0#0200000500000000
(007.388400) can0 0AA#05ECFF0001
(007.388487) can0 0AA#0143B22DA0DD9FFE
(007.400197) can0 0B0#0164430500000000
(007.400317) can0 181#4A1F4901
(007.401194) can0 0B0#0200000500000000
(007.424077) can0 0B0#0164420500000000
(007.425193) can0 0B0#0164420500000000
(007.426202) can0 0B0#0200000500000000
(007.427823) can0 0C0#0231000000000000
(007.428439) can0 0AA#05EBFF0001
(007.428521) can0 0AA#0143B22DA0DD9FFD
(007.432886) can0 0C0#0100000000000000
(007.437642) can0 0C0#0000000000000000
(007.445411) can0 182#4A574801
(007.450193) can0 0B0#0164420500000000
(007.451180) can0 0B0#0200000500000000
(007.468523) can0 0AA#05EDFF0001
(007.468613) can0 0AA#0143B22FA0DC9FFD
(007.471565) can0 0FF#9000707000000000
(007.475216) can0 0B0#0164420500000000
(007.476203) can0 0B0#0200000500000000
(007.500179) can0 0B0#0164430500000000
(007.500268) can0 181#4A284901
(007.501206) can0 0B0#0200000500000000
(007.525163) can0 0B0#0164430500000000
(007.526183) can0 0B0#0200000500000000
(007.526372) can0 0AA#0A070B07600679
(007.537642) can0 0AA#05ECFF0001
(007.537730) can0 0AA#0143B22FA0DD9FFE
(007.545223) can0 182#4A594801
(007.547552) can0 0D0#0600000000000157
(007.549654) can0 0AA#05ECFF0001
(007.549738) can0 0AA#0143B22DA0DD9FFE
(007.550189) can0 0B0#0164420500000000
(007.551199) can0 0B0#0200000500000000
(007.575217) can0 0B0#0164440500000000
(007.576189) can0 0B0#0200000500000000
(007.588745) can0 0AA#05EBFF0001
(007.588834) can0 0AA#0143B234A0DC9FFE
(007.598034) can0 0D0#0600000000000157
(007.599464) can0 0B0#0200000500000000
(007.600048) can0 181#4A254901
(007.600126) can0 0B0#0164420500000000
(007.601213) can0 0B0#0200000500000000
(007.623549) can0 0FF#9000707000000000
(007.625179) can0 0B0#0164430500000000
(007.626210) can0 0B0#0200000500000000
(007.628830) can0 0AA#05EDFF0001
(007.628916) can0 0AA#0143B23DA0DD9FFE
(007.645074) can0 182#4A594801
(007.647430) can0 0D0#0600000000000157
(007.650197) can0 0B0#0164420500000000
(007.651206) can0 0B0#0200000500000000
(007.668909) can0 0AA#05EFFF0001
(007.668997) can0 0AA#0143B235A0DC9FFD
(007.674623) can0 0B0#0164420500000000
(007.675164) can0 0B0#0164430500000000
(007.676189) can0 0B0#0200000500000000
(007.697922) can0 0D0#0600000000000157
(007.699910) can0 181#4A1F4901
(007.700154) can0 0B0#0164430500000000
(007.701180) can0 0B0#0200000500000000
(007.725221) can0 0B0#0164420500000000
(007.726209) can0 0B0#0200000500000000
(007.726774) can0 0AA#0A070B07600679
(007.728765) can0 0AF#0201000760067900
(007.738003) can0 0AA#05EBFF0001
(007.738146) can0 0AA#0143B229A0DC9FFE
(007.744903) can0 182#4A584801
(007.750063) can0 0AA#05EBFF0001
(007.750149) can0 0AA#0143B227A0DC9FFD
(007.750198) can0 0B0#0164430500000000
(007.751227) can0 0B0#0200000500000000
(007.775211) can0 0B0#0164420500000000
(007.776215) can0 0B0#0200000500000000
(007.777552) can0 0FF#9000707000000000
(007.789113) can0 0AA#05ECFF0001
(007.789199) can0 0AA#0143B22AA0DC9FFE
(007.799735) can0 181#4A254901
(007.800195) can0 0B0#0164430500000000
(007.801209) can0 0B0#0200000500000000
(007.825201) can0 0B0#0164410500000000
(007.826183) can0 0B0#0200000500000000
(007.829154) can0 0AA#05EFFF0001
(007.829249) can0 0AA#0143B22EA0DD9FFD
(007.844759) can0 182#4A5E4801
(007.850057) can0 0B0#0200000500000000
(007.850142) can0 0B0#0164430500000000
(007.851192) can0 0B0#0200000500000000
(007.869244) can0 0AA#05ECFF0001
(007.869335) can0 0AA#0143B22EA0DD9FFD
(007.875226) can0 0B0#0164420500000000
(007.876190) can0 0B0#0200000500000000
(007.897698) can0 0D0#0600000000000157
(007.899596) can0 181#4A254901
(007.900183) can0 0B0#0164430500000000
(007.901200) can0 0B0#0200000500000000
(007.925190) can0 0B0#0164440500000000
(007.926192) can0 0B0#0200000500000000
(007.927143) can0 0AA#0A070B07600679
(007.929568) can0 0FF#90006F7000000000
(007.938388) can0 0AA#05EDFF0001
(007.938474) can0 0AA#0143B230A0DD9FFE
(007.944584) can0 182#4A5B4801
(007.950205) can0 0B0#0164420500000000
(007.950346) can0 0AA#05EDFF0001
(007.950482) can0 0AA#0143B226A0DD9FFE
(007.951212) can0 0B0#0200000500000000
(007.975197) can0 0B0#0164430500000000
(007.976221) can0 0B0#0200000500000000
(007.989474) can0 0AA#05EFFF0001
(007.989562) can0 0AA#0143B230A0DC9FFE
(007.999465) can0 181#4A214901
(008.000194) can0 0B0#0164440500000000
(008.001206) can0 0B0#0200000500000000
(008.025209) can0 0B0#0164430500000000
(008.026208) can0 0B0#0200000500000000
(008.027727) can0 0C0#0231000000000000
(008.029540) can0 0AA#05EDFF0001
(008.029625) can0 0AA#0143B231A0DD9FFD
(008.032637) can0 0C0#0100000000000000
(008.037407) can0 0C0#0000000000000000
(008.044444) can0 182#4A594801
(008.050234) can0 0B0#0164430500000000
(008.051218) can0 0B0#0200000500000000
(008.069605) can0 0AA#05EBFF0001
(008.069692) can0 0AA#0143B231A0DD9FFE
(008.075226) can0 0B0#0164430500000000
(008.076221) can0 0B0#0200000500000000
(008.081580) can0 0FF#9000707000000000
(008.099263) can0 181#4A204901
(008.100222) can0 0B0#0164420500000000
(008.100593) can0 0B0#0200000500000000
(008.101216) can0 0B0#0200000500000000
(008.125245) can0 0B0#0164420500000000
(008.126210) can0 0B0#0200000500000000
(008.127483) can0 0AA#0A070B07600679
(008.138736) can0 0AA#05EDFF0001
(008.138823) can0 0AA#0143B232A0DC9FFE
(008.144268) can0 182#4A574801
(008.147449) can0 0D0#0600000000000157
(008.150187) can0 0B0#0164430500000000
(008.150737) can0 0AA#05EDFF0001
(008.150816) can0 0AA#0143B22DA0DC9FFE
(008.151171) can0 0B0#0200000500000000
(008.175214) can0 0B0#0164430500000000
(008.175773) can0 0B0#0164430500000000
(008.176200) can0 0B0#0200000500000000
(008.189824) can0 0AA#05EBFF0001
(008.189909) can0 0AA#0143B232A0DC9FFD
(008.198201) can0 0D0#0600000000000157
(008.199121) can0 181#4A244901
(008.200227) can0 0B0#0164420500000000
(008.201232) can0 0B0#0200000500000000
(008.225219) can0 0B0#0164430500000000
(008.226206) can0 0B0#0200000500000000
(008.227439) can0 0C0#0231000000000000
(008.229471) can0 0A0#0131000000000000
(008.229847) can0 0A0#02EC000000000000
(008.229892) can0 0AA#05EAFF0001
(008.230025) can0 0AA#0143B22CA0DC9FFD
(008.231391) can0 0AF#0201000000000000
(008.233014) can0 055#0100000000000000
(008.233551) can0 0FF#9000707000000000
(008.238257) can0 0C0#0000000000000000
(008.244093) can0 182#4A574801
(008.248180) can0 0D0#0600000000000157
(008.250208) can0 0B0#0164430500000000
(008.251195) can0 0B0#0200000500000000
(008.269989) can0 0AA#05EBFF0001
(008.270078) can0 0AA#0143B232A0DC9FFD
(008.275230) can0 0B0#0164440500000000
(008.276216) can0 0B0#0200000500000000
(008.297996) can0 0D0#0600000000000157
(008.298961) can0 181#4A244901
(008.300227) can0 0B0#0164420500000000
(008.301232) can0 0B0#0200000500000000
(008.325225) can0 0B0#0164420500000000
(008.326235) can0 0B0#0200000500000000
(008.327869) can0 0AA#0A070B07600679
(008.339118) can0 0AA#05EFFF0001
(008.339205) can0 0AA#0143B238A0DD9FFF
(008.343977) can0 182#4A5C4801
(008.350224) can0 0B0#0164430500000000
(008.351122) can0 0AA#05ECFF0001
(008.351207) can0 0AA#0143B234A0DD9FFE
(008.375198) can0 0B0#0164420500000000
(008.376201) can0 0B0#0200000500000000
(008.385559) can0 0FF#9000707000000000
(008.390207) can0 0AA#05ECFF0001
(008.390292) can0 0AA#0143B22BA0DD9FFE
(008.398835) can0 181#4A214901
(008.400207) can0 0B0#0164440500000000
(008.401251) can0 0B0#0200000500000000
(008.425240) can0 0B0#0164430500000000
(008.426209) can0 0B0#0200000500000000
(008.426292) can0 0B0#0164430500000000
(008.428138) can0 0C0#0231000000000000
(008.430264) can0 0AA#05EAFF0001
(008.430349) can0 0AA#0143B223A0DC9FFD
(008.432976) can0 0C0#0100000000000000
(008.438025) can0 0C0#0000000000000000
(008.443776) can0 182#4A584801
(008.450255) can0 0B0#0164440500000000
(008.451237) can0 0B0#0200000500000000
(008.470324) can0 0AA#05EDFF0001
(008.470414) can0 0AA#0143B235A0DC9FFD
(008.475233) can0 0B0#0164430500000000
(008.476226) can0 0B0#0200000500000000
(008.498639) can0 181#4A264901
(008.500212) can0 0B0#0164420500000000
(008.501224) can0 0B0#0200000500000000
(008.525222) can0 0B0#0164430500000000
(008.526218) can0 0B0#0200000500000000
(008.528207) can0 0AA#0A070B07600679
(008.537565) can0 0FF#9000707000000000
(008.538266) can0 0C0#0000000000000000
(008.539466) can0 0AA#05EDFF0001
(008.539550) can0 0AA#0143B22BA0DD9FFD
(008.543105) can0 0D0#0800000000000000
(008.543611) can0 182#4A574801
(008.548105) can0 0D0#0600000000000157
(008.550248) can0 0B0#0164430500000000
(008.551235) can0 0B0#0200000500000000
(008.551445) can0 0AA#05EFFF0001
(008.551554) can0 0AA#0143B234A0DD9FFD
(008.575232) can0 0B0#0164420500000000
(008.576246) can0 0B0#0200000500000000
(008.590565) can0 0AA#05EBFF0001
(008.590656) can0 0AA#0143B22CA0DC9FFD
(008.598025) can0 0D0#0600000000000157
(008.598473) can0 181#4A244901
(008.600242) can0 0B0#0164430500000000
(008.601244) can0 0B0#0200000500000000
(008.601755) can0 0B0#0200000500000000
(008.625232) can0 0B0#0164420500000000
(008.626246) can0 0B0#0200000500000000
(008.630649) can0 0AA#05ECFF0001
(008.630735) can0 0AA#0143B231A0DC9FFD
(008.633310) can0 0C0#0100000000000000
(008.643483) can0 182#4A5A4801
(008.648234) can0 0D0#0600000000000157
(008.650221) can0 0B0#0164420500000000
(008.651218) can0 0B0#0200000500000000
(008.670715) can0 0AA#05ECFF0001
(008.670803) can0 0AA#0143B236A0DC9FFD
(008.675208) can0 0B0#0164440500000000
(008.676205) can0 0B0#0200000500000000
(008.676920) can0 0B0#0164420500000000
(008.689575) can0 0FF#9000707000000000
(008.698346) can0 181#4A214901
(008.700225) can0 0B0#0164440500000000
(008.701233) can0 0B0#0200000500000000
(008.725228) can0 0B0#0164430500000000
(008.726250) can0 0B0#0200000500000000
(008.728037) can0 0C0#0231000000000000
(008.728585) can0 0AA#0A070B07600679
(008.729522) can0 0AF#0201000760067900
(008.733095) can0 0C0#0100000000000000
(008.737806) can0 0C0#0000000000000000
(008.739801) can0 0AA#05EAFF0001
(008.739882) can0 0AA#0143B21DA0DD9FFD
(008.743318) can0 182#4A574801
(008.748044) can0 0D0#0600000000000157
(008.750241) can0 0B0#0164430500000000
(008.751251) can0 0B0#0200000500000000
(008.751835) can0 0AA#05ECFF0001
(008.751927) can0 0AA#0143B221A0DD9FFD
(008.775207) can0 0B0#0164420500000000
(008.776257) can0 0B0#0200000500000000
(008.790902) can0 0AA#05EBFF0001
(008.790991) can0 0AA#0143B22DA0DC9FFD
(008.797801) can0 0D0#0600000000000157
(008.798191) can0 181#4A1F4901
(008.800200) can0 0B0#0164440500000000
(008.801218) can0 0B0#0200000500000000
(008.825232) can0 0B0#0164420500000000
(008.826240) can0 0B0#0200000500000000
(008.828191) can0 0C0#0231000000000000
(008.830965) can0 0AA#05EBFF0001
(008.831045) can0 0AA#0143B235A0DD9FFD
(008.832980) can0 0C0#0100000000000000
(008.837733) can0 0C0#0000000000000000
(008.841571) can0 0FF#90006F7000000000
(008.843153) can0 182#4A594801
(008.847503) can0 0D0#0600000000000157
(008.850248) can0 0B0#0164430500000000
(008.851244) can0 0B0#0200000500000000
(008.852348) can0 0B0#0200000500000000
(008.871059) can0 0AA#05ECFF0001
(008.871146) can0 0AA#0143B236A0DD9FFE
(008.875241) can0 0B0#0164420500000000
(008.876220) can0 0B0#0200000500000000
(008.897685) can0 0D0#0600000000000157
(008.898022) can0 181#4A254901
(008.900258) can0 0B0#0164420500000000
(008.901249) can0 0B0#0200000500000000
(008.925217) can0 0B0#0164420500000000
(008.926210) can0 0B0#0200000500000000
(008.927511) can0 0B0#0164410500000000
(008.928947) can0 0AA#0A070B07600679
(008.940205) can0 0AA#05EFFF0001
(008.940291) can0 0AA#0143B222A0DD9FFC
(008.943048) can0 182#4A584801
(008.947918) can0 0D0#0600000000000157
(008.950213) can0 0B0#0164410500000000
(008.951198) can0 0B0#0200000500000000
(008.952181) can0 0AA#05EFFF0001
(008.952259) can0 0AA#0143B21FA0DD9FFD
(008.975281) can0 0B0#0164430500000000
(008.976258) can0 0B0#0200000500000000
(008.991276) can0 0AA#05ECFF0001
(008.991366) can0 0AA#0143B22BA0DC9FFD
(008.993580) can0 0FF#9000707000000000
(008.997581) can0 0D0#0600000000000157
(008.997823) can0 181#4A244901
(009.000226) can0 0B0#0164420500000000
(009.001247) can0 0B0#0200000500000000
(009.025251) can0 0B0#0164410500000000
(009.026260) can0 0B0#0200000500000000
(009.031365) can0 0AA#05EDFF0001
(009.031452) can0 0AA#0143B233A0DD9FFE
(009.042869) can0 182#4A514801
(009.047793) can0 0D0#0600000000000157
(009.050236) can0 0B0#0164430500000000
(009.051264) can0 0B0#0200000500000000
(009.071405) can0 0AA#05EDFF0001
(009.071505) can0 0AA#0143B227A0DC9FFD
(009.075220) can0 0B0#0164430500000000
(009.076214) can0 0B0#0200000500000000
(009.097720) can0 181#4A214901
(009.100239) can0 0B0#0164430500000000
(009.101223) can0 0B0#0200000500000000
(009.102897) can0 0B0#0200000500000000
(009.125268) can0 0B0#0164430500000000
(009.126257) can0 0B0#0200000500000000
(009.128149) can0 0C0#0231000000000000
(009.129309) can0 0AA#0A070B07600679
(009.133181) can0 0C0#0100000000000000
(009.137899) can0 0C0#0000000000000000
(009.140533) can0 0AA#05ECFF0001
(009.140620) can0 0AA#0143B22FA0DD9FFD
(009.142687) can0 182#4A574801
(009.145578) can0 0FF#90006F7000000000
(009.150264) can0 0B0#0164420500000000
(009.151235) can0 0B0#0200000500000000
(009.152559) can0 0AA#05ECFF0001
(009.152645) can0 0AA#0143B22CA0DD9FFD
(009.175257) can0 0B0#0164410500000000
(009.176253) can0 0B0#0200000500000000
(009.178149) can0 0B0#0164420500000000
(009.191648) can0 0AA#05ECFF0001
(009.191736) can0 0AA#0143B235A0DC9FFD
(009.197575) can0 181#4A1F4901
(009.200212) can0 0B0#0164420500000000
(009.201210) can0 0B0#0200000500000000
(009.225232) can0 0B0#0164410500000000
(009.226230) can0 0B0#0200000500000000
(009.231567) can0 0A0#0100000500000000
(009.231702) can0 0AA#05EBFF0001
(009.231754) can0 0AA#0143B226A0DD9FFE
(009.232050) can0 0A0#02EC000500000000
(009.233204) can0 0AF#0201000500000000
(009.242551) can0 182#4A584801
(009.243003) can0 055#0100000000000000
(009.250252) can0 0B0#0164420500000000
(009.251262) can0 0B0#0200000500000000
(009.271774) can0 0AA#05EDFF0001
(009.271863) can0 0AA#0143B231A0DD9FFD
(009.275266) can0 0B0#0164430500000000
(009.276252) can0 0B0#0200000500000000
(009.297373) can0 181#4A204901
(009.299592) can0 0FF#90006F7000000000
(009.300219) can0 0B0#0164440500000000
(009.301275) can0 0B0#0200000500000000
(009.325236) can0 0B0#0164440500000000
(009.326234) can0 0B0#0200000500000000
(009.329664) can0 0AA#0A070B0760067B
(009.340920) can0 0AA#05EDFF0001
(009.341008) can0 0AA#0143B21EA0DC9FFD
(009.342411) can0 182#4A5A4801
(009.347731) can0 0D0#0600000000000157
(009.350239) can0 0B0#0164430500000000
(009.351226) can0 0B0#0200000500000000
(009.352915) can0 0AA#05ECFF0001
(009.353002) can0 0AA#0143B222A0DC9FFD
(009.353485) can0 0B0#0200000500000000
(009.375249) can0 0B0#0164430500000000
(009.376233) can0 0B0#0200000500000000
(009.391998) can0 0AA#05ECFF0001
(009.392087) can0 0AA#0143B221A0DD9FFD
(009.397272) can0 181#4A214901
(009.400260) can0 0B0#0164420500000000
(009.401235) can0 0B0#0200000500000000
(009.425236) can0 0B0#0164440500000000
(009.426246) can0 0B0#0200000500000000
(009.428353) can0 0C0#0231000000000000
(009.428659) can0 0B0#0164430500000000
(009.432060) can0 0AA#05ECFF0001
(009.432147) can0 0AA#0143B228A0DD9FFD
(009.442189) can0 182#4A5A4801
(009.450258) can0 0B0#0164410500000000
(009.451263) can0 0B0#0200000500000000
(009.451568) can0 0FF#9000707000000000
(009.472125) can0 0AA#05ECFF0001
(009.472222) can0 0AA#0143B22EA0DC9FFD
(009.475276) can0 0B0#0164430500000000
(009.476271) can0 0B0#0200000500000000
(009.497039) can0 181#4A264901
(009.500234) can0 0B0#0164440500000000
(009.501221) can0 0B0#0200000500000000
(009.525257) can0 0B0#0164410500000000
(009.526245) can0 0B0#0200000500000000
(009.528234) can0 0C0#0231000000000000
(009.530014) can0 0AA#0A070B0760067B
(009.538283) can0 0C0#0000000000000000
(009.541255) can0 0AA#05ECFF0001
(009.541340) can0 0AA#0143B228A0DD9FFD
(009.542028) can0 182#4A554801
(009.550270) can0 0B0#0164430500000000
(009.551243) can0 0B0#0200000500000000
(009.553278) can0 0AA#05ECFF0001
(009.553364) can0 0AA#0143B225A0DD9FFD
(009.575260) can0 0B0#0164430500000000
(009.576265) can0 0B0#0200000500000000
(009.592336) can0 0AA#05EDFF0001
(009.592422) can0 0AA#0143B22AA0DD9FFD
(009.596910) can0 181#4A204901
(009.600266) can0 0B0#0164410500000000
(009.601275) can0 0B0#0200000500000000
(009.603584) can0 0FF#9000707000000000
(009.604063) can0 0B0#0200000500000000
(009.625239) can0 0B0#0164420500000000
(009.626222) can0 0B0#0200000500000000
(009.632412) can0 0AA#05ECFF0001
(009.632500) can0 0AA#0143B228A0DC9FFE
(009.641916) can0 182#4A5D4801
(009.647702) can0 0D0#0600000000000157
(009.650222) can0 0B0#0164410500000000
(009.651234) can0 0B0#0200000500000000
(009.672509) can0 0AA#05ECFF0001
(009.672598) can0 0AA#0143B237A0DC9FFD
(009.675272) can0 0B0#0164420500000000
(009.676280) can0 0B0#0200000500000000
(009.679234) can0 0B0#0164420500000000
(009.696762) can0 181#4A254901
(009.697648) can0 0D0#0600000000000157
(009.700270) can0 0B0#0164420500000000
(009.701277) can0 0B0#0200000500000000
(009.725282) can0 0B0#0164430500000000
(009.726273) can0 0B0#0200000500000000
(009.729331) can0 0AF#0201000500000000
(009.730377) can0 0AA#0A070B0760067B
(009.741596) can0 0AA#05EDFF0001
(009.741683) can0 0AA#0143B22EA0DC9FFE
(009.741732) can0 182#4A5D4801
(009.747823) can0 0D0#0600000000000157
(009.750285) can0 0B0#0164420500000000
(009.751277) can0 0B0#0200000500000000
(009.753636) can0 0AA#05EFFF0001
(009.753722) can0 0AA#0143B226A0DC9FFD
(009.755605) can0 0FF#9000707000000000
(009.775268) can0 0B0#0164430500000000
(009.776242) can0 0B0#0200000500000000
(009.792711) can0 0AA#05ECFF0001
(009.792799) can0 0AA#0143B22DA0DD9FFD
(009.796609) can0 181#4A254901
(009.800295) can0 0B0#0164440500000000
(009.801242) can0 0B0#0200000500000000
(009.825289) can0 0B0#0164430500000000
(009.826261) can0 0B0#0200000500000000
(009.832759) can0 0AA#05EFFF0001
(009.832846) can0 0AA#0143B220A0DC9FFD
(009.841617) can0 182#4A564801
(009.847745) can0 0D0#0600000000000157
(009.850278) can0 0B0#0164430500000000
(009.851250) can0 0B0#0200000500000000
(009.854656) can0 0B0#0200000500000000
(009.872833) can0 0AA#05EBFF0001
(009.872923) can0 0AA#0143B238A0DC9FFE
(009.875268) can0 0B0#0164430500000000
(009.876257) can0 0B0#0200000500000000
(009.896416) can0 181#4A214901
(009.897851) can0 0D0#0600000000000157
(009.900226) can0 0B0#0164430500000000
(009.901228) can0 0B0#0200000500000000
(009.907595) can0 0FF#9000707000000000
(009.925233) can0 0B0#0164420500000000
(009.926247) can0 0B0#0200000500000000
(009.929804) can0 0B0#0164420500000000
(009.930719) can0 0AA#0A070B0760067B
(009.941467) can0 182#4A5A4801
(009.941938) can0 0AA#05EDFF0001
(009.942009) can0 0AA#0143B230A0DC9FFE
(009.950315) can0 0B0#0164430500000000
(009.951283) can0 0B0#0200000500000000
(009.953966) can0 0AA#05EFFF0001
(009.954049) can0 0AA#0143B23BA0DC9FFE
(009.975285) can0 0B0#0164420500000000
(009.976258) can0 0B0#0200000500000000
(009.993033) can0 0AA#05EFFF0001
(009.993122) can0 0AA#0143B22CA0DC9FFE
(009.996288) can0 181#4A234901
(010.000293) can0 0B0#0164440500000000
(010.001273) can0 0B0#0200000500000000
(010.025265) can0 0B0#0164420500000000
(010.026264) can0 0B0#0200000500000000
(010.033128) can0 0AA#05EAFF0001
(010.033214) can0 0AA#0143B230A0DC9FFD
(010.041322) can0 182#4A5B4801
(010.050255) can0 0B0#0164420500000000
(010.051266) can0 0B0#0200000500000000
(010.059605) can0 0FF#9000707000000000
(010.073197) can0 0AA#05EDFF0001
(010.073285) can0 0AA#0143B22DA0DC9FFD
(010.075258) can0 0B0#0164430500000000
(010.076247) can0 0B0#0200000500000000
(010.096123) can0 181#4A284901
(010.100295) can0 0B0#0164430500000000
(010.101280) can0 0B0#0200000500000000
(010.105230) can0 0B0#0200000500000000
(010.125278) can0 0B0#0164410500000000
(010.126276) can0 0B0#0200000500000000
(010.128392) can0 0C0#0231000000000000
(010.131064) can0 0AA#0A070B075F067B
(010.133515) can0 0C0#0100000000000000
(010.138340) can0 0C0#0000000000000000
(010.141097) can0 182#4A584801
(010.142268) can0 0AA#05ECFF0001
(010.142345) can0 0AA#0143B239A0DC9FFE
(010.147960) can0 0D0#0600000000000157
(010.150264) can0 0B0#0164440500000000
(010.151285) can0 0B0#0200000500000000
(010.154319) can0 0AA#05EBFF0001
(010.154405) can0 0AA#0143B235A0DC9FFE
(010.175272) can0 0B0#0164420500000000
(010.176280) can0 0B0#0200000500000000
(010.180420) can0 0B0#0164430500000000
(010.193399) can0 0AA#05ECFF0001
(010.193486) can0 0AA#0143B220A0DC9FFD
(010.195968) can0 181#4A254901
(010.200251) can0 0B0#0164430500000000
(010.201259) can0 0B0#0200000500000000
(010.211606) can0 0FF#9000707000000000
(010.225287) can0 0B0#0164420500000000
(010.226288) can0 0B0#0200000500000000
(010.233157) can0 0C0#0100000000000000
(010.233436) can0 0AA#05EBFF0001
(010.233499) can0 0AA#0143B229A0DD9FFE
(010.235949) can0 0A0#0143B229A0DD9FFE
(010.236655) can0 0A0#02ECB229A0DD9FFE
(010.237017) can0 0AF#02010029A0DD9FFE
(010.240950) can0 182#4A5A4801
(010.242056) can0 055#0100000000000000
(010.250293) can0 0B0#0164440500000000
(010.251278) can0 0B0#0200000500000000
(010.273527) can0 0AA#05EBFF0001
(010.273617) can0 0AA#0143B22BA0DC9FFE
(010.275300) can0 0B0#0164430500000000
(010.276270) can0 0B0#0200000500000000
(010.295780) can0 181#4A274901
(010.300327) can0 0B0#0164430500000000
(010.301289) can0 0B0#0200000500000000
(010.325263) can0 0B0#0164410500000000
(010.326254) can0 0B0#0200000500000000
(010.331434) can0 0AA#0A070B075F067B
(010.333325) can0 0C0#0100000000000000
(010.338233) can0 0C0#0000000000000000
(010.340817) can0 182#4A574801
(010.342645) can0 0AA#05ECFF0001
(010.342729) can0 0AA#0143B22BA0DD9FFE
(010.350277) can0 0B0#0164440500000000
(010.351286) can0 0B0#0200000500000000
(010.354638) can0 0AA#05EDFF0001
(010.354725) can0 0AA#0143B22DA0DD9FFE
(010.355778) can0 0B0#0200000500000000
(010.363595) can0 0FF#9000707000000000
(010.375253) can0 0B0#0164430500000000
(010.376284) can0 0B0#0200000500000000
(010.393732) can0 0AA#05ECFF0001
(010.393821) can0 0AA#0143B235A0DD9FFD
(010.395660) can0 181#4A234901
(010.400299) can0 0B0#0164420500000000
(010.401266) can0 0B0#0200000500000000
(010.425298) can0 0B0#0164430500000000
(010.426269) can0 0B0#0200000500000000
(010.427820) can0 0C0#0231000000000000
(010.430982) can0 0B0#0164430500000000
(010.432886) can0 0C0#0100000000000000
(010.433802) can0 0AA#05EFFF0001
(010.433886) can0 0AA#0143B22EA0DE9FFD
(010.437869) can0 0C0#0000000000000000
(010.440617) can0 182#4A5C4801
(010.450248) can0 0B0#0164430500000000
(010.451279) can0 0B0#0200000500000000
(010.473854) can0 0AA#05EFFF0001
(010.473944) can0 0AA#0143B236A0DC9FFD
(010.475244) can0 0B0#0164440500000000
(010.476242) can0 0B0#0200000500000000
(010.495518) can0 181#4A204901
(010.497856) can0 0D0#0600000000000157
(010.500274) can0 0B0#0164410500000000
(010.501269) can0 0B0#0200000500000000
(010.515600) can0 0FF#9000707000000000
(010.525312) can0 0B0#0164420500000000
(010.526297) can0 0B0#0200000500000000
(010.531741) can0 0AA#0A070B075F067B
(010.540452) can0 182#4A564801
(010.542989) can0 0AA#05ECFF0001
(010.543074) can0 0AA#0143B22FA0DC9FFD
(010.550307) can0 0B0#0164420500000000
(010.551307) can0 0B0#0200000500000000
(010.555011) can0 0AA#05ECFF0001
(010.555096) can0 0AA#0143B21EA0DC9FFD
(010.575278) can0 0B0#0164430500000000
(010.576268) can0 0B0#0200000500000000
(010.594059) can0 0AA#05EBFF0001
(010.594146) can0 0AA#0143B22CA0DC9FFD
(010.595303) can0 181#4A244901
(010.597718) can0 0D0#0600000000000157
(010.600264) can0 0B0#0164430500000000
(010.601250) can0 0B0#0200000500000000
(010.606402) can0 0B0#0200000500000000
(010.625277) can0 0B0#0164410500000000
(010.626275) can0 0B0#0200000500000000
(010.634140) can0 0AA#05EDFF0001
(010.634228) can0 0AA#0143B22FA0DC9FFE
(010.640336) can0 182#4A584801
(010.648227) can0 0D0#0600000000000157
(010.650296) can0 0B0#0164430500000000
(010.651271) can0 0B0#0200000500000000
(010.667596) can0 0FF#9000707000000000
(010.674202) can0 0AA#05EDFF0001
(010.674289) can0 0AA#0143B235A0DC9FFF
(010.675314) can0 0B0#0164430500000000
(010.676315) can0 0B0#0200000500000000
(010.681549) can0 0B0#0164420500000000
(010.695156) can0 181#4A224901
(010.700330) can0 0B0#0164430500000000
(010.701309) can0 0B0#0200000500000000
(010.725281) can0 0B0#0164440500000000
(010.726295) can0 0B0#0200000500000000
(010.727937) can0 0C0#0231000000000000
(010.728937) can0 0AF#0201000000000000
(010.732087) can0 0AA#0A070B075F067B
(010.732891) can0 0C0#0100000000000000
(010.738106) can0 0C0#0000000000000000
(010.740151) can0 182#4A564801
(010.743327) can0 0AA#05ECFF0001
(010.743412) can0 0AA#0143B22CA0DC9FFD
(010.747568) can0 0D0#0600000000000157
(010.750303) can0 0B0#0164410500000000
(010.751287) can0 0B0#0200000500000000
(010.755342) can0 0AA#05ECFF0001
(010.755428) can0 0AA#0143B231A0DC9FFD
(010.775287) can0 0B0#0164420500000000
(010.776273) can0 0B0#0200000500000000
(010.794423) can0 0AA#05EDFF0001
(010.794512) can0 0AA#0143B235A0DC9FFE
(010.794997) can0 181#4A214901
(010.797804) can0 0D0#0600000000000157
(010.800295) can0 0B0#0164420500000000
(010.801299) can0 0B0#0200000500000000
(010.819622) can0 0FF#9000707000000000
(010.825303) can0 0B0#0164420500000000
(010.826288) can0 0B0#0200000500000000
(010.834501) can0 0AA#05ECFF0001
(010.834589) can0 0AA#0143B238A0DD9FFE
(010.840009) can0 182#4A554801
(010.847395) can0 0D0#0600000000000157
(010.850311) can0 0B0#0164430500000000
(010.851312) can0 0B0#0200000500000000
(010.856959) can0 0B0#0200000500000000
(010.874536) can0 0AA#05EAFF0001
(010.874625) can0 0AA#0143B23DA0DD9FFD
(010.875269) can0 0B0#0164420500000000
(010.876303) can0 0B0#0200000500000000
(010.894841) can0 181#4A214901
(010.897931) can0 0D0#0600000000000157
(010.900292) can0 0B0#0164420500000000
(010.901276) can0 0B0#0200000500000000
(010.925294) can0 0B0#0164430500000000
(010.926276) can0 0B0#0200000500000000
(010.932127) can0 0B0#0164410500000000
(010.932403) can0 0AA#0A070B075F067B
(010.939834) can0 182#4A534801
(010.943667) can0 0AA#05ECFF0001
(010.943753) can0 0AA#0143B22BA0DD9FFD
(010.950313) can0 0B0#0164430500000000
(010.951289) can0 0B0#0200000500000000
(010.955690) can0 0AA#05ECFF0001
(010.955774) can0 0AA#0143B232A0DD9FFD
(010.973617) can0 0FF#9000707000000000
(010.975289) can0 0B0#0164430500000000
(010.976286) can0 0B0#0200000500000000
(010.994723) can0 181#4A274901
(010.994810) can0 0AA#05EDFF0001
(010.994859) can0 0AA#0143B222A0DC9FFC
(011.000310) can0 0B0#0164420500000000
(011.001309) can0 0B0#0200000500000000
(011.025277) can0 0B0#0164420500000000
(011.026316) can0 0B0#0200000500000000
(011.027613) can0 0C0#0231000000000000
(011.034825) can0 0AA#05EFFF0001
(011.034911) can0 0AA#0143B22CA0DD9FFD
(011.037425) can0 0C0#0000000000000000
(011.039662) can0 182#4A5C4801
(011.050283) can0 0B0#0164420500000000
(011.051287) can0 0B0#0200000500000000
(011.074908) can0 0AA#05ECFF0001
(011.074997) can0 0AA#0143B22FA0DD9FFC
(011.075279) can0 0B0#0164410500000000
(011.076297) can0 0B0#0200000500000000
(011.094535) can0 181#4A244901
(011.100283) can0 0B0#0164420500000000
(011.101290) can0 0B0#0200000500000000
(011.107540) can0 0B0#0200000500000000
(011.125302) can0 0B0#0164440500000000
(011.125579) can0 0FF#9000707000000000
(011.126294) can0 0B0#0200000500000000
(011.128168) can0 0C0#0231000000000000
(011.132783) can0 0AA#0A070B075F067B
(011.133183) can0 0C0#0100000000000000
(011.138172) can0 0C0#0000000000000000
(011.139509) can0 182#4A564801
(011.143996) can0 0AA#05EBFF0001
(011.144096) can0 0AA#0143B22DA0DD9FFD
(011.147666) can0 0D0#0600000000000157
(011.150311) can0 0B0#0164430500000000
(011.151287) can0 0B0#0200000500000000
(011.156033) can0 0AA#05EAFF0001
(011.156117) can0 0AA#0143B21FA0DD9FFD
(011.175300) can0 0B0#0164410500000000
(011.176296) can0 0B0#0200000500000000
(011.182704) can0 0B0#0164420500000000
(011.194432) can0 181#4A264901
(011.195086) can0 0AA#05EDFF0001
(011.195167) can0 0AA#0143B227A0DC9FFD
(011.197901) can0 0D0#0600000000000157
(011.200302) can0 0B0#0164440500000000
(011.201292) can0 0B0#0200000500000000
(011.225328) can0 0B0#0164430500000000
(011.226303) can0 0B0#0200000500000000
(011.229356) can0 0A0#0100000500000000
(011.229706) can0 0A0#02EC000500000000
(011.230566) can0 0AF#0201000500000000
(011.235146) can0 0AA#05EBFF0001
(011.235228) can0 0AA#0143B236A0DD9FFD
(011.236063) can0 055#0100000000000000
(011.239402) can0 182#4A584801
(011.248150) can0 0D0#0600000000000157
(011.250310) can0 0B0#0164420500000000
(011.251309) can0 0B0#0200000500000000
(011.275227) can0 0AA#05EDFF0001
(011.275317) can0 0AA#0143B22BA0DC9FFD
(011.276312) can0 0B0#0200000500000000
(011.277630) can0 0FF#9000707000000000
(011.294214) can0 181#4A264901
(011.297510) can0 0D0#0600000000000157
(011.300289) can0 0B0#0164420500000000
(011.301301) can0 0B0#0200000500000000
(011.325279) can0 0B0#0164440500000000
(011.326314) can0 0B0#0200000500000000
(011.333117) can0 0AA#0A070B075F067B
(011.339210) can0 182#4A554801
(011.344358) can0 0AA#05ECFF0001
(011.344443) can0 0AA#0143B225A0DD9FFC
(011.350350) can0 0B0#0164420500000000
(011.351318) can0 0B0#0200000500000000
(011.356354) can0 0AA#05EDFF0001
(011.356438) can0 0AA#0143B228A0DD9FFC
(011.358141) can0 0B0#0200000500000000
(011.375361) can0 0B0#0164430500000000
(011.376305) can0 0B0#0200000500000000
(011.394047) can0 181#4A274901
(011.395447) can0 0AA#05ECFF0001
(011.395531) can0 0AA#0143B223A0DD9FFC
(011.400354) can0 0B0#0164420500000000
(011.401289) can0 0B0#0200000500000000
(011.425282) can0 0B0#0164410500000000
(011.426334) can0 0B0#0200000500000000
(011.427725) can0 0C0#0231000000000000
(011.429623) can0 0FF#9000707000000000
(011.432445) can0 0C0#0100000000000000
(011.433288) can0 0B0#0164440500000000
(011.435514) can0 0AA#05ECFF0001
(011.435597) can0 0AA#0143B223A0DC9FFE
(011.439064) can0 182#4A594801
(011.450300) can0 0B0#0164430500000000
(011.451297) can0 0B0#0200000500000000
(011.475300) can0 0B0#0164430500000000
(011.475547) can0 0AA#05EDFF0001
(011.475642) can0 0AA#0143B247A0DD9FFD
(011.476274) can0 0B0#0200000500000000
(011.493930) can0 181#4A204901
(011.497845) can0 0D0#0600000000000157
(011.500322) can0 0B0#0164420500000000
(011.501321) can0 0B0#0200000500000000
(011.525307) can0 0B0#0164440500000000
(011.526303) can0 0B0#0200000500000000
(011.527440) can0 0C0#0231000000000000
(011.533500) can0 0AA#0A070B075F067B
(011.538898) can0 182#4A564801
(011.544708) can0 0AA#05EDFF0001
(011.544794) can0 0AA#0143B223A0DD9FFC
(011.550325) can0 0B0#0164430500000000
(011.551298) can0 0B0#0200000500000000
(011.556737) can0 0AA#05ECFF0001
(011.556821) can0 0AA#0143B22BA0DD9FFD
(011.575300) can0 0B0#0164430500000000
(011.576303) can0 0B0#0200000500000000
(011.581642) can0 0FF#9000707000000000
(011.593798) can0 181#4A244901
(011.595806) can0 0AA#05EDFF0001
(011.595890) can0 0AA#0143B229A0DD9FFD
(011.600283) can0 0B0#0164430500000000
(011.601287) can0 0B0#0200000500000000
(011.608700) can0 0B0#0200000500000000
(011.625322) can0 0B0#0164410500000000
(011.626300) can0 0B0#0200000500000000
(011.635867) can0 0AA#05ECFF0001
(011.635955) can0 0AA#0143B225A0DC9FFD
(011.638789) can0 182#4A594801
(011.648221) can0 0D0#0600000000000157
(011.650328) can0 0B0#0164420500000000
(011.651306) can0 0B0#0200000500000000
(011.675315) can0 0B0#0164420500000000
(011.675943) can0 0AA#05EDFF0001
(011.676022) can0 0AA#0143B222A0DC9FFD
(011.676316) can0 0B0#0200000500000000
(011.683894) can0 0B0#0164430500000000
(011.693575) can0 181#4A244901
(011.700344) can0 0B0#0164420500000000
(011.701342) can0 0B0#0200000500000000
(011.725271) can0 0B0#0164420500000000
(011.726285) can0 0B0#0200000500000000
(011.729357) can0 0AF#0201000500000000
(011.733617) can0 0FF#90006F7000000000
(011.733802) can0 0AA#0A070B075F067A
(011.738577) can0 182#4A5B4801
(011.745072) can0 0AA#05EDFF0001
(011.745156) can0 0AA#0143B231A0DE9FFD
(011.748377) can0 0D0#0600000000000157
(011.750318) can0 0B0#0164430500000000
(011.751287) can0 0B0#0200000500000000
(011.757072) can0 0AA#05ECFF0001
(011.757156) can0 0AA#0143B22BA0DE9FFC
(011.775341) can0 0B0#0164410500000000
(011.776344) can0 0B0#0200000500000000
(011.793432) can0 181#4A264901
(011.796168) can0 0AA#05ECFF0001
(011.796250) can0 0AA#0143B22CA0DD9FFC
(011.797784) can0 0D0#0600000000000157
(011.800299) can0 0B0#0164420500000000
(011.801307) can0 0B0#0200000500000000
(011.825309) can0 0B0#0164410500000000
(011.826338) can0 0B0#0200000500000000
(011.836259) can0 0AA#05EBFF0001
(011.836347) can0 0AA#0143B22DA0DD9FFD
(011.838239) can0 0C0#0000000000000000
(011.838332) can0 182#4A554801
(011.850314) can0 0B0#0164410500000000
(011.851334) can0 0B0#0200000500000000
(011.859286) can0 0B0#0200000500000000
(011.875302) can0 0B0#0164430500000000
(011.876303) can0 0B0#0200000500000000
(011.876386) can0 0AA#05EBFF0001
(011.876436) can0 0AA#0143B234A0DE9FFD
(011.885643) can0 0FF#9000707000000000
(011.893295) can0 181#4A244901
(011.897941) can0 0D0#0600000000000157
(011.900331) can0 0B0#0164430500000000
(011.901316) can0 0B0#0200000500000000
(011.925328) can0 0B0#0164430500000000
(011.926326) can0 0B0#0200000500000000
(011.934200) can0 0AA#0A070B075F067A
(011.934404) can0 0B0#0164430500000000
(011.938264) can0 182#4A5B4801
(011.945433) can0 0AA#05ECFF0001
(011.945519) can0 0AA#0143B22BA0DE9FFC
(011.950340) can0 0B0#0164430500000000
(011.951338) can0 0B0#0200000500000000
(011.957465) can0 0AA#05EDFF0001
(011.957549) can0 0AA#0143B22BA0DE9FFC
(011.975307) can0 0B0#0164420500000000
(011.976342) can0 0B0#0200000500000000
(011.993108) can0 181#4A284901
(011.996508) can0 0AA#05ECFF0001
(011.996590) can0 0AA#0143B237A0DC9FFD
(011.997808) can0 0D0#0600000000000157
(012.000286) can0 0B0#0164440500000000
(012.001315) can0 0B0#0200000500000000
(012.025307) can0 0B0#0164430500000000
(012.026321) can0 0B0#0200000500000000
(012.033280) can0 0C0#0100000000000000
(012.036603) can0 0AA#05EDFF0001
(012.036687) can0 0AA#0143B22BA0DD9FFD
(012.037639) can0 0FF#9000707000000000
(012.038178) can0 182#4A564801
(012.050320) can0 0B0#0164420500000000
(012.051317) can0 0B0#0200000500000000
(012.075306) can0 0B0#0164430500000000
(012.076313) can0 0B0#0200000500000000
(012.076648) can0 0AA#05ECFF0001
(012.076712) can0 0AA#0143B237A0DD9FFE
(012.092952) can0 181#4A264901
(012.100334) can0 0B0#0164430500000000
(012.101311) can0 0B0#0200000500000000
(012.109861) can0 0B0#0200000500000000
(012.125299) can0 0B0#0164410500000000
(012.126320) can0 0B0#0200000500000000
(012.128169) can0 0C0#0231000000000000
(012.133190) can0 0C0#0100000000000000
(012.134558) can0 0AA#0A070B075F067A
(012.137902) can0 0C0#0000000000000000
(012.137986) can0 182#4A574801
(012.145762) can0 0AA#05ECFF0001
(012.145861) can0 0AA#0143B22EA0DC9FFF
(012.147899) can0 0D0#0600000000000157
(012.150312) can0 0B0#0164420500000000
(012.151299) can0 0B0#0200000500000000
(012.157821) can0 0AA#05EFFF0001
(012.157915) can0 0AA#0143B230A0DC9FFE
(012.175305) can0 0B0#0164430500000000
(012.176334) can0 0B0#0200000500000000
(012.185013) can0 0B0#0164430500000000
(012.189653) can0 0FF#9000707000000000
(012.192798) can0 181#4A234901
(012.196881) can0 0AA#05EDFF0001
(012.196965) can0 0AA#0143B23AA0DD9FFD
(012.197877) can0 0D0#0600000000000157
(012.200373) can0 0B0#0164420500000000
(012.201349) can0 0B0#0200000500000000
(012.225339) can0 0B0#0164430500000000
(012.226328) can0 0B0#0200000500000000
(012.229394) can0 0A0#0100000500000000
(012.229746) can0 0A0#02EC000500000000
(012.230615) can0 0AF#0201000500000000
(012.236930) can0 0AA#05ECFF0001
(012.237016) can0 0AA#0143B23AA0DD9FFD
(012.237153) can0 055#0100000000000000
(012.237754) can0 182#4A5A4801
(012.248023) can0 0D0#0600000000000157
(012.250316) can0 0B0#0164420500000000
(012.251356) can0 0B0#0200000500000000
(012.275335) can0 0B0#0164440500000000
(012.276340) can0 0B0#0200000500000000
(012.277025) can0 0AA#05EDFF0001
(012.277108) can0 0AA#0143B22DA0DD9FFE
(012.292656) can0 181#4A244901
(012.297758) can0 0D0#0600000000000157
(012.300323) can0 0B0#0164420500000000
(012.301285) can0 0B0#0200000500000000
(012.325367) can0 0B0#0164420500000000
(012.326321) can0 0B0#0200000500000000
(012.334910) can0 0AA#0A070B075F067A
(012.337648) can0 182#4A5D4801
(012.341637) can0 0FF#9000707000000000
(012.346143) can0 0AA#05EAFF0001
(012.346229) can0 0AA#0143B22CA0DC9FFF
(012.350369) can0 0B0#0164420500000000
(012.351326) can0 0B0#0200000500000000
(012.358217) can0 0AA#05EAFF0001
(012.358291) can0 0AA#0143B225A0DC9FFD
(012.360413) can0 0B0#0200000500000000
(012.375337) can0 0B0#0164440500000000
(012.376330) can0 0B0#0200000500000000
(012.392467) can0 181#4A244901
(012.397223) can0 0AA#05ECFF0001
(012.397309) can0 0AA#0143B234A0DC9FFD
(012.400348) can0 0B0#0164430500000000
(012.401347) can0 0B0#0200000500000000
(012.425303) can0 0B0#0164430500000000
(012.426331) can0 0B0#0200000500000000
(012.427721) can0 0C0#0231000000000000
(012.435600) can0 0B0#0164430500000000
(012.437303) can0 0AA#05EFFF0001
(012.437387) can0 0AA#0143B22FA0DD9FFD
(012.437437) can0 182#4A534801
(012.450329) can0 0B0#0164410500000000
(012.451323) can0 0B0#0200000500000000
(012.475378) can0 0B0#0164430500000000
(012.476333) can0 0B0#0200000500000000
(012.477369) can0 0AA#05ECFF0001
(012.477453) can0 0AA#0143B226A0DC9FFD
(012.492337) can0 181#4A234901
(012.495645) can0 0FF#9000707000000000
(012.500354) can0 0B0#0164410500000000
(012.501334) can0 0B0#0200000500000000
(012.525309) can0 0B0#0164420500000000
(012.526319) can0 0B0#0200000500000000
(012.528172) can0 0C0#0231000000000000
(012.532856) can0 0C0#0100000000000000
(012.535263) can0 0AA#0A070B0760067A
(012.537331) can0 182#4A554801
(012.537900) can0 0C0#0000000000000000
(012.542617) can0 0D0#0800000000000000
(012.546470) can0 0AA#05EDFF0001
(012.546550) can0 0AA#0143B22FA0DC9FFE
(012.547755) can0 0D0#0600000000000157
(012.550359) can0 0B0#0164430500000000
(012.551353) can0 0B0#0200000500000000
(012.558537) can0 0AA#05EBFF0001
(012.558623) can0 0AA#0143B228A0DC9FFE
(012.575336) can0 0B0#0164430500000000
(012.576338) can0 0B0#0200000500000000
(012.592179) can0 181#4A244901
(012.597583) can0 0AA#05EAFF0001
(012.597667) can0 0AA#0143B226A0DC9FFE
(012.598470) can0 0D0#0600000000000157
(012.600343) can0 0B0#0164420500000000
(012.601345) can0 0B0#0200000500000000
(012.610991) can0 0B0#0200000500000000
(012.625367) can0 0B0#0164420500000000
(012.626360) can0 0B0#0200000500000000
(012.637159) can0 182#4A594801
(012.637630) can0 0AA#05ECFF0001
(012.637703) can0 0AA#0143B239A0DD9FFD
(012.647655) can0 0FF#9000707000000000
(012.650327) can0 0B0#0164420500000000
(012.651332) can0 0B0#0200000500000000
(012.675351) can0 0B0#0164430500000000
(012.676369) can0 0B0#0200000500000000
(012.677721) can0 0AA#05EAFF0001
(012.677804) can0 0AA#0143B22EA0DC9FFE
(012.686185) can0 0B0#0164420500000000
(012.692027) can0 181#4A284901
(012.698175) can0 0D0#0600000000000157
(012.700357) can0 0B0#0164440500000000
(012.701357) can0 0B0#0200000500000000
(012.725317) can0 0B0#0164420500000000
(012.726326) can0 0B0#0200000500000000
(012.727462) can0 0C0#0231000000000000
(012.731537) can0 0AF#0201000000000000
(012.735607) can0 0AA#0A070B0760067A
(012.737018) can0 182#4A584801
(012.746860) can0 0AA#05ECFF0001
(012.746946) can0 0AA#0143B22AA0DC9FFE
(012.750355) can0 0B0#0164420500000000
(012.751343) can0 0B0#0200000500000000
(012.758842) can0 0AA#05ECFF0001
(012.758928) can0 0AA#0143B22CA0DC9FFE
(012.775356) can0 0B0#0164430500000000
(012.776346) can0 0B0#0200000500000000
(012.791838) can0 181#4A254901
(012.797936) can0 0AA#05EDFF0001
(012.798021) can0 0AA#0143B22BA0DD9FFE
(012.799662) can0 0FF#9000707000000000
(012.800341) can0 0B0#0164430500000000
(012.801341) can0 0B0#0200000500000000
(012.825338) can0 0B0#0164420500000000
(012.826345) can0 0B0#0200000500000000
(012.836840) can0 182#4A574801
(012.838008) can0 0AA#05ECFF0001
(012.838149) can0 0AA#0143B232A0DD9FFD
(012.850349) can0 0B0#0164420500000000
(012.851356) can0 0B0#0200000500000000
(012.861585) can0 0B0#0200000500000000
(012.875338) can0 0B0#0164420500000000
(012.876327) can0 0B0#0200000500000000
(012.878103) can0 0AA#05EBFF0001
(012.878186) can0 0AA#0143B22EA0DC9FFD
(012.891720) can0 181#4A264901
(012.898373) can0 0D0#0600000000000157
(012.900350) can0 0B0#0164430500000000
(012.901366) can0 0B0#0200000500000000
(012.925364) can0 0B0#0164430500000000
(012.926339) can0 0B0#0200000500000000
(012.927533) can0 0C0#0231000000000000
(012.935964) can0 0AA#0A070B0760067A
(012.936646) can0 182#4A584801
(012.936727) can0 0B0#0164420500000000
(012.947191) can0 0AA#05EDFF0001
(012.947279) can0 0AA#0143B232A0DD9FFF
(012.950371) can0 0B0#0164430500000000
(012.951352) can0 0B0#0200000500000000
(012.951621) can0 0FF#90006F7000000000
(012.959235) can0 0AA#05EDFF0001
(012.959321) can0 0AA#0143B22DA0DD9FFD
(012.975337) can0 0B0#0164440500000000
(012.976375) can0 0B0#0200000500000000
(012.991521) can0 181#4A224901
(012.998269) can0 0AA#05EBFF0001
(012.998353) can0 0AA#0143B22EA0DD9FFD
(013.000351) can0 0B0#0164410500000000
(013.001334) can0 0B0#0200000500000000
(013.025385) can0 0B0#0164430500000000
(013.026364) can0 0B0#0200000500000000
(013.028155) can0 0C0#0231000000000000
(013.032822) can0 0C0#0100000000000000
(013.036535) can0 182#4A594801
(013.037730) can0 0C0#0000000000000000
(013.038337) can0 0AA#05EBFF0001
(013.038417) can0 0AA#0143B226A0DC9FFD
(013.042556) can0 0D0#0800000000000000
(013.047514) can0 0D0#0600000000000157
(013.050351) can0 0B0#0164430500000000
(013.051355) can0 0B0#0200000500000000
(013.075370) can0 0B0#0164430500000000
(013.076362) can0 0B0#0200000500000000
(013.078440) can0 0AA#05EBFF0001
(013.078524) can0 0AA#0143B236A0DD9FFE
(013.091371) can0 181#4A264901
(013.100345) can0 0B0#0164420500000000
(013.101343) can0 0B0#0200000500000000
(013.103649) can0 0FF#90006F7000000000
(013.112171) can0 0B0#0200000500000000
(013.125345) can0 0B0#0164410500000000
(013.126347) can0 0B0#0200000500000000
(013.136335) can0 0AA#0A070B0760067A
(013.136413) can0 182#4A5B4801
(013.138335) can0 0C0#0000000000000000
(013.147545) can0 0AA#05F0FF0001
(013.147630) can0 0AA#0143B22BA0DC9FFD
(013.148410) can0 0D0#0600000000000157
(013.150329) can0 0B0#0164440500000000
(013.151333) can0 0B0#0200000500000000
(013.159573) can0 0AA#05ECFF0001
(013.159661) can0 0AA#0143B226A0DC9FFD
(013.175387) can0 0B0#0164430500000000
(013.176361) can0 0B0#0200000500000000
(013.187308) can0 0B0#0164430500000000
(013.191236) can0 181#4A274901
(013.197864) can0 0D0#0600000000000157
(013.198617) can0 0AA#05EDFF0001
(013.198697) can0 0AA#0143B223A0DC9FFE
(013.200380) can0 0B0#0164420500000000
(013.201341) can0 0B0#0200000500000000
(013.225338) can0 0B0#0164420500000000
(013.226342) can0 0B0#0200000500000000
(013.229395) can0 0A0#0100000500000000
(013.229744) can0 0A0#02EC000500000000
(013.231064) can0 0AF#0201000500000000
(013.236160) can0 182#4A5A4801
(013.237116) can0 055#0100000000000000
(013.238704) can0 0AA#05EBFF0001
(013.238793) can0 0AA#0143B21AA0DC9FFD
(013.250374) can0 0B0#0164420500000000
(013.251363) can0 0B0#0200000500000000
(013.255657) can0 0FF#9000707000000000
(013.275340) can0 0B0#0164420500000000
(013.276360) can0 0B0#0200000500000000
(013.278760) can0 0AA#05ECFF0001
(013.278849) can0 0AA#0143B22EA0DC9FFE
(013.291089) can0 181#4A214901
(013.300382) can0 0B0#0164410500000000
(013.301363) can0 0B0#0200000500000000
(013.325392) can0 0B0#0164430500000000
(013.326362) can0 0B0#0200000500000000
(013.336056) can0 182#4A574801
(013.336638) can0 0AA#0A070B0760067A
(013.338187) can0 0C0#0000000000000000
(013.347889) can0 0AA#05EDFF0001
(013.347975) can0 0AA#0143B22DA0DD9FFD
(013.350385) can0 0B0#0164440500000000
(013.351362) can0 0B0#0200000500000000
(013.359932) can0 0AA#05EAFF0001
(013.360018) can0 0AA#0143B21FA0DD9FFD
(013.362733) can0 0B0#0200000500000000
(013.375371) can0 0B0#0164430500000000
(013.376377) can0 0B0#0200000500000000
(013.390922) can0 181#4A224901
(013.397826) can0 0D0#0600000000000157
(013.398957) can0 0AA#05EBFF0001
(013.399038) can0 0AA#0143B22BA0DD9FFD
(013.400323) can0 0B0#0164440500000000
(013.401357) can0 0B0#0200000500000000
(013.407668) can0 0FF#9000707000000000
(013.425334) can0 0B0#0164410500000000
(013.426358) can0 0B0#0200000500000000
(013.435868) can0 182#4A594801
(013.437901) can0 0B0#0164430500000000
(013.439058) can0 0AA#05ECFF0001
(013.439145) can0 0AA#0143B222A0DC9FFD
(013.450375) can0 0B0#0164430500000000
(013.451385) can0 0B0#0200000500000000
(013.475361) can0 0B0#0164430500000000
(013.476360) can0 0B0#0200000500000000
(013.479139) can0 0AA#05EDFF0001
(013.479225) can0 0AA#0143B23CA0DD9FFD
(013.490736) can0 181#4A224901
(013.498271) can0 0D0#0600000000000157
(013.500380) can0 0B0#0164420500000000
(013.501359) can0 0B0#0200000500000000
(013.525364) can0 0B0#0164430500000000
(013.526354) can0 0B0#0200000500000000
(013.535743) can0 182#4A554801
(013.537022) can0 0AA#0A070B0760067A
(013.548244) can0 0AA#05ECFF0001
(013.548330) can0 0AA#0143B228A0DE9FFD
(013.550335) can0 0B0#0164410500000000
(013.551340) can0 0B0#0200000500000000
(013.559689) can0 0FF#9000707000000000
(013.560258) can0 0AA#05ECFF0001
(013.560336) can0 0AA#0143B22AA0DE9FFD
(013.575392) can0 0B0#0164430500000000
(013.576362) can0 0B0#0200000500000000
(013.590591) can0 181#4A234901
(013.599366) can0 0AA#05F0FF0001
(013.599452) can0 0AA#0143B240A0DD9FFD
(013.600352) can0 0B0#0164430500000000
(013.601377) can0 0B0#0200000500000000
(013.613293) can0 0B0#0200000500000000
(013.625364) can0 0B0#0164430500000000
(013.626380) can0 0B0#0200000500000000
(013.628153) can0 0C0#0231000000000000
(013.632996) can0 0C0#0100000000000000
(013.635594) can0 182#4A584801
(013.637780) can0 0C0#0000000000000000
(013.639390) can0 0AA#05EBFF0001
(013.639472) can0 0AA#0143B22EA0DC9FFD
(013.647582) can0 0D0#0600000000000157
(013.650370) can0 0B0#0164420500000000
(013.651363) can0 0B0#0200000500000000
(013.675345) can0 0B0#0164420500000000
(013.676390) can0 0B0#0200000500000000
(013.679496) can0 0AA#05ECFF0001
(013.679583) can0 0AA#0143B237A0DC9FFE
(013.688509) can0 0B0#0164420500000000
(013.690426) can0 181#4A234901
(013.698366) can0 0D0#0600000000000157
(013.700337) can0 0B0#0164410500000000
(013.701355) can0 0B0#0200000500000000
(013.711674) can0 0FF#9000707000000000
(013.725399) can0 0B0#0164430500000000
(013.726379) can0 0B0#0200000500000000
(013.734386) can0 0AF#0201000500000000
(013.735429) can0 182#4A574801
(013.737372) can0 0AA#0A070B0760067A
(013.748626) can0 0AA#05EBFF0001
(013.748713) can0 0AA#0143B238A0DC9FFD
(013.750409) can0 0B0#0164420500000000
(013.751376) can0 0B0#0200000500000000
(013.760605) can0 0AA#05ECFF0001
